(1435150352.916961) vcan0 004#0000000000000000
(1435150354.003504) vcan0 004#0000000000000000
(1435150354.004084) vcan0 004#0100000000000000
(1435150354.004685) vcan0 004#0200000000000000
(1435150354.005258) vcan0 004#0300000000000000
(1435150354.005714) vcan0 004#0400000000000000
(1435150354.006401) vcan0 004#0500000000000000
(1435150354.006749) vcan0 004#0600000000000000
(1435150354.007010) vcan0 004#0700000000000000
(1435150354.007447) vcan0 004#0800000000000000
(1435150354.008095) vcan0 004#0900000000000000
(1435150354.008543) vcan0 004#0A00000000000000
(1435150354.008886) vcan0 004#0B00000000000000
(1435150354.009204) vcan0 004#0C00000000000000
(1435150354.009663) vcan0 004#0D00000000000000
(1435150354.010284) vcan0 004#0E00000000000000
(1435150354.010996) vcan0 004#0F00000000000000
(1435150354.011542) vcan0 004#1000000000000000
(1435150354.011875) vcan0 004#1100000000000000
(1435150354.012227) vcan0 004#1200000000000000
(1435150354.012665) vcan0 004#1300000000000000
(1435150354.013131) vcan0 004#1400000000000000
(1435150354.013452) vcan0 004#1500000000000000
(1435150354.013812) vcan0 004#1600000000000000
(1435150354.014018) vcan0 004#1700000000000000
(1435150354.014662) vcan0 004#1800000000000000
(1435150354.015130) vcan0 004#1900000000000000
(1435150354.015453) vcan0 004#1A00000000000000
(1435150354.015812) vcan0 004#1B00000000000000
(1435150354.016817) vcan0 004#1C00000000000000
(1435150354.017120) vcan0 004#1D00000000000000
(1435150354.017697) vcan0 004#1E00000000000000
(1435150354.018287) vcan0 004#1F00000000000000
(1435150354.018983) vcan0 004#2000000000000000
(1435150354.019542) vcan0 004#2100000000000000
(1435150354.019877) vcan0 004#2200000000000000
(1435150354.020228) vcan0 004#2300000000000000
(1435150354.020664) vcan0 004#2400000000000000
(1435150354.021132) vcan0 004#2500000000000000
(1435150354.021454) vcan0 004#2600000000000000
(1435150354.021813) vcan0 004#2700000000000000
(1435150354.022011) vcan0 004#2800000000000000
(1435150354.022596) vcan0 004#2900000000000000
(1435150354.023093) vcan0 004#2A00000000000000
(1435150354.023424) vcan0 004#2B00000000000000
(1435150354.023779) vcan0 004#2C00000000000000
(1435150354.024018) vcan0 004#2D00000000000000
(1435150354.024646) vcan0 004#2E00000000000000
(1435150354.025133) vcan0 004#2F00000000000000
(1435150354.025444) vcan0 004#3000000000000000
(1435150354.025814) vcan0 004#3100000000000000
(1435150354.025988) vcan0 004#3200000000000000
(1435150354.026898) vcan0 004#3300000000000000
(1435150354.027266) vcan0 004#3400000000000000
(1435150354.027517) vcan0 004#3500000000000000
(1435150354.027860) vcan0 004#3600000000000000
(1435150354.028159) vcan0 004#3700000000000000
(1435150354.028642) vcan0 004#3800000000000000
(1435150354.029155) vcan0 004#3900000000000000
(1435150354.029716) vcan0 004#3A00000000000000
(1435150354.030180) vcan0 004#3B00000000000000
(1435150354.030613) vcan0 004#3C00000000000000
(1435150354.031120) vcan0 004#3D00000000000000
(1435150354.031759) vcan0 004#3E00000000000000
(1435150354.032012) vcan0 004#3F00000000000000
(1435150354.032255) vcan0 004#4000000000000000
(1435150354.032481) vcan0 004#4100000000000000
(1435150354.032726) vcan0 004#4200000000000000
(1435150354.032960) vcan0 004#4300000000000000
(1435150354.033189) vcan0 004#4400000000000000
(1435150354.033554) vcan0 004#4500000000000000
(1435150354.033886) vcan0 004#4600000000000000
(1435150354.034658) vcan0 004#4700000000000000
(1435150354.035376) vcan0 004#4800000000000000
(1435150354.035826) vcan0 004#4900000000000000
(1435150354.036111) vcan0 004#4A00000000000000
(1435150354.036556) vcan0 004#4B00000000000000
(1435150354.037019) vcan0 004#4C00000000000000
(1435150354.037707) vcan0 004#4D00000000000000
(1435150354.038290) vcan0 004#4E00000000000000
(1435150354.038496) vcan0 004#4F00000000000000
(1435150354.039154) vcan0 004#5000000000000000
(1435150354.039769) vcan0 004#5100000000000000
(1435150354.040286) vcan0 004#5200000000000000
(1435150354.041477) vcan0 004#5300000000000000
(1435150354.042455) vcan0 004#5400000000000000
(1435150354.043081) vcan0 004#5500000000000000
(1435150354.043864) vcan0 004#5600000000000000
(1435150354.044245) vcan0 004#5700000000000000
(1435150354.044569) vcan0 004#5800000000000000
(1435150354.045205) vcan0 004#5900000000000000
(1435150354.045849) vcan0 004#5A00000000000000
(1435150354.046042) vcan0 004#5B00000000000000
(1435150354.046479) vcan0 004#5C00000000000000
(1435150354.046726) vcan0 004#5D00000000000000
(1435150354.047056) vcan0 004#5E00000000000000
(1435150354.047661) vcan0 004#5F00000000000000
(1435150354.048147) vcan0 004#6000000000000000
(1435150354.048436) vcan0 004#6100000000000000
(1435150354.048830) vcan0 004#6200000000000000
(1435150354.049497) vcan0 004#6300000000000000
(1435150354.050242) vcan0 004#6400000000000000
(1435150354.050693) vcan0 004#6500000000000000
(1435150354.051135) vcan0 004#6600000000000000
(1435150354.051461) vcan0 004#6700000000000000
(1435150354.051817) vcan0 004#6800000000000000
(1435150354.052509) vcan0 004#6900000000000000
(1435150354.053039) vcan0 004#6A00000000000000
(1435150354.053390) vcan0 004#6B00000000000000
(1435150354.053724) vcan0 004#6C00000000000000
(1435150354.054449) vcan0 004#6D00000000000000
(1435150354.054781) vcan0 004#6E00000000000000
(1435150354.055036) vcan0 004#6F00000000000000
(1435150354.055462) vcan0 004#7000000000000000
(1435150354.056113) vcan0 004#7100000000000000
(1435150354.056606) vcan0 004#7200000000000000
(1435150354.056921) vcan0 004#7300000000000000
(1435150354.057291) vcan0 004#7400000000000000
(1435150354.058289) vcan0 004#7500000000000000
(1435150354.058720) vcan0 004#7600000000000000
(1435150354.058976) vcan0 004#7700000000000000
(1435150354.059402) vcan0 004#7800000000000000
(1435150354.060081) vcan0 004#7900000000000000
(1435150354.060589) vcan0 004#7A00000000000000
(1435150354.060914) vcan0 004#7B00000000000000
(1435150354.061271) vcan0 004#7C00000000000000
(1435150354.061707) vcan0 004#7D00000000000000
(1435150354.062472) vcan0 004#7E00000000000000
(1435150354.062791) vcan0 004#7F00000000000000
(1435150354.063056) vcan0 004#8000000000000000
(1435150354.063472) vcan0 004#8100000000000000
(1435150354.063743) vcan0 004#8200000000000000
(1435150354.063977) vcan0 004#8300000000000000
(1435150354.064667) vcan0 004#8400000000000000
(1435150354.065295) vcan0 004#8500000000000000
(1435150354.065535) vcan0 004#8600000000000000
(1435150354.065957) vcan0 004#8700000000000000
(1435150354.066703) vcan0 004#8800000000000000
(1435150354.067250) vcan0 004#8900000000000000
(1435150354.067710) vcan0 004#8A00000000000000
(1435150354.068198) vcan0 004#8B00000000000000
(1435150354.068947) vcan0 004#8C00000000000000
(1435150354.069438) vcan0 004#8D00000000000000
(1435150354.070395) vcan0 004#8E00000000000000
(1435150354.070770) vcan0 004#8F00000000000000
(1435150354.071037) vcan0 004#9000000000000000
(1435150354.071454) vcan0 004#9100000000000000
(1435150354.072105) vcan0 004#9200000000000000
(1435150354.072611) vcan0 004#9300000000000000
(1435150354.072944) vcan0 004#9400000000000000
(1435150354.073299) vcan0 004#9500000000000000
(1435150354.073714) vcan0 004#9600000000000000
(1435150354.074296) vcan0 004#9700000000000000
(1435150354.074730) vcan0 004#9800000000000000
(1435150354.075179) vcan0 004#9900000000000000
(1435150354.075492) vcan0 004#9A00000000000000
(1435150354.075860) vcan0 004#9B00000000000000
(1435150354.076545) vcan0 004#9C00000000000000
(1435150354.077087) vcan0 004#9D00000000000000
(1435150354.077400) vcan0 004#9E00000000000000
(1435150354.077771) vcan0 004#9F00000000000000
(1435150354.078393) vcan0 004#A000000000000000
(1435150354.078745) vcan0 004#A100000000000000
(1435150354.079024) vcan0 004#A200000000000000
(1435150354.079416) vcan0 004#A300000000000000
(1435150354.080486) vcan0 004#A400000000000000
(1435150354.080838) vcan0 004#A500000000000000
(1435150354.081434) vcan0 004#A600000000000000
(1435150354.082320) vcan0 004#A700000000000000
(1435150354.082718) vcan0 004#A800000000000000
(1435150354.083001) vcan0 004#A900000000000000
(1435150354.083401) vcan0 004#AA00000000000000
(1435150354.084077) vcan0 004#AB00000000000000
(1435150354.084591) vcan0 004#AC00000000000000
(1435150354.084916) vcan0 004#AD00000000000000
(1435150354.085277) vcan0 004#AE00000000000000
(1435150354.085691) vcan0 004#AF00000000000000
(1435150354.086294) vcan0 004#B000000000000000
(1435150354.086999) vcan0 004#B100000000000000
(1435150354.087685) vcan0 004#B200000000000000
(1435150354.088161) vcan0 004#B300000000000000
(1435150354.088586) vcan0 004#B400000000000000
(1435150354.088924) vcan0 004#B500000000000000
(1435150354.089244) vcan0 004#B600000000000000
(1435150354.089687) vcan0 004#B700000000000000
(1435150354.090293) vcan0 004#B800000000000000
(1435150354.090994) vcan0 004#B900000000000000
(1435150354.091685) vcan0 004#BA00000000000000
(1435150354.091974) vcan0 004#BB00000000000000
(1435150354.092366) vcan0 004#BC00000000000000
(1435150354.092599) vcan0 004#BD00000000000000
(1435150354.093201) vcan0 004#BE00000000000000
(1435150354.093648) vcan0 004#BF00000000000000
(1435150354.093968) vcan0 004#C000000000000000
(1435150354.094329) vcan0 004#C100000000000000
(1435150354.095028) vcan0 004#C200000000000000
(1435150354.095497) vcan0 004#C300000000000000
(1435150354.095835) vcan0 004#C400000000000000
(1435150354.096281) vcan0 004#C500000000000000
(1435150354.097043) vcan0 004#C600000000000000
(1435150354.097585) vcan0 004#C700000000000000
(1435150354.097894) vcan0 004#C800000000000000
(1435150354.098269) vcan0 004#C900000000000000
(1435150354.099515) vcan0 004#CA00000000000000
(1435150354.099827) vcan0 004#CB00000000000000
(1435150354.100060) vcan0 004#CC00000000000000
(1435150354.100512) vcan0 004#CD00000000000000
(1435150354.100712) vcan0 004#CE00000000000000
(1435150354.100954) vcan0 004#CF00000000000000
(1435150354.101636) vcan0 004#D000000000000000
(1435150354.102194) vcan0 004#D100000000000000
(1435150354.102678) vcan0 004#D200000000000000
(1435150354.103141) vcan0 004#D300000000000000
(1435150354.103466) vcan0 004#D400000000000000
(1435150354.103835) vcan0 004#D500000000000000
(1435150354.104018) vcan0 004#D600000000000000
(1435150354.104599) vcan0 004#D700000000000000
(1435150354.105094) vcan0 004#D800000000000000
(1435150354.105426) vcan0 004#D900000000000000
(1435150354.105779) vcan0 004#DA00000000000000
(1435150354.105957) vcan0 004#DB00000000000000
(1435150354.106629) vcan0 004#DC00000000000000
(1435150354.107125) vcan0 004#DD00000000000000
(1435150354.107426) vcan0 004#DE00000000000000
(1435150354.107812) vcan0 004#DF00000000000000
(1435150354.108195) vcan0 004#E000000000000000
(1435150354.108638) vcan0 004#E100000000000000
(1435150354.108967) vcan0 004#E200000000000000
(1435150354.109324) vcan0 004#E300000000000000
(1435150354.109704) vcan0 004#E400000000000000
(1435150354.110299) vcan0 004#E500000000000000
(1435150354.111486) vcan0 004#E600000000000000
(1435150354.111824) vcan0 004#E700000000000000
(1435150354.112120) vcan0 004#E800000000000000
(1435150354.112512) vcan0 004#E900000000000000
(1435150354.112809) vcan0 004#EA00000000000000
(1435150354.113090) vcan0 004#EB00000000000000
(1435150354.113614) vcan0 004#EC00000000000000
(1435150354.114282) vcan0 004#ED00000000000000
(1435150354.114608) vcan0 004#EE00000000000000
(1435150354.115171) vcan0 004#EF00000000000000
(1435150354.115696) vcan0 004#F000000000000000
(1435150354.116031) vcan0 004#F100000000000000
(1435150354.116385) vcan0 004#F200000000000000
(1435150354.116734) vcan0 004#F300000000000000
(1435150354.117140) vcan0 004#F400000000000000
(1435150354.117763) vcan0 004#F500000000000000
(1435150354.118279) vcan0 004#F600000000000000
(1435150354.118590) vcan0 004#F700000000000000
(1435150354.119107) vcan0 004#F800000000000000
(1435150354.119775) vcan0 004#F900000000000000
(1435150354.120033) vcan0 004#FA00000000000000
(1435150354.120383) vcan0 004#FB00000000000000
(1435150354.120570) vcan0 004#FC00000000000000
(1435150354.120810) vcan0 004#FD00000000000000
(1435150354.121048) vcan0 004#FE00000000000000
(1435150354.121287) vcan0 004#FF00000000000000
(1435150354.121545) vcan0 004#0001000000000000
(1435150354.123577) vcan0 004#0101000000000000
(1435150354.124361) vcan0 004#0201000000000000
(1435150354.124812) vcan0 004#0301000000000000
(1435150354.125459) vcan0 004#0401000000000000
(1435150354.126324) vcan0 004#0501000000000000
(1435150354.126851) vcan0 004#0601000000000000
(1435150354.127255) vcan0 004#0701000000000000
(1435150354.127697) vcan0 004#0801000000000000
(1435150354.128298) vcan0 004#0901000000000000
(1435150354.128561) vcan0 004#0A01000000000000
(1435150354.129205) vcan0 004#0B01000000000000
(1435150354.129836) vcan0 004#0C01000000000000
(1435150354.130009) vcan0 004#0D01000000000000
(1435150354.130348) vcan0 004#0E01000000000000
(1435150354.131203) vcan0 004#0F01000000000000
(1435150354.131843) vcan0 004#1001000000000000
(1435150354.132020) vcan0 004#1101000000000000
(1435150354.132461) vcan0 004#1201000000000000
(1435150354.133097) vcan0 004#1301000000000000
(1435150354.133597) vcan0 004#1401000000000000
(1435150354.133927) vcan0 004#1501000000000000
(1435150354.134285) vcan0 004#1601000000000000
(1435150354.134698) vcan0 004#1701000000000000
(1435150354.135145) vcan0 004#1801000000000000
(1435150354.135467) vcan0 004#1901000000000000
(1435150354.135830) vcan0 004#1A01000000000000
(1435150354.136298) vcan0 004#1B01000000000000
(1435150354.136829) vcan0 004#1C01000000000000
(1435150354.137455) vcan0 004#1D01000000000000
(1435150354.138442) vcan0 004#1E01000000000000
(1435150354.138898) vcan0 004#1F01000000000000
(1435150354.139091) vcan0 004#2001000000000000
(1435150354.140040) vcan0 004#2101000000000000
(1435150354.140404) vcan0 004#2201000000000000
(1435150354.140996) vcan0 004#2301000000000000
(1435150354.141545) vcan0 004#2401000000000000
(1435150354.142304) vcan0 004#2501000000000000
(1435150354.142496) vcan0 004#2601000000000000
(1435150354.143134) vcan0 004#2701000000000000
(1435150354.143623) vcan0 004#2801000000000000
(1435150354.143947) vcan0 004#2901000000000000
(1435150354.144313) vcan0 004#2A01000000000000
(1435150354.144709) vcan0 004#2B01000000000000
(1435150354.145141) vcan0 004#2C01000000000000
(1435150354.145474) vcan0 004#2D01000000000000
(1435150354.145825) vcan0 004#2E01000000000000
(1435150354.146524) vcan0 004#2F01000000000000
(1435150354.147074) vcan0 004#3001000000000000
(1435150354.147390) vcan0 004#3101000000000000
(1435150354.147762) vcan0 004#3201000000000000
(1435150354.148023) vcan0 004#3301000000000000
(1435150354.148623) vcan0 004#3401000000000000
(1435150354.149238) vcan0 004#3501000000000000
(1435150354.149681) vcan0 004#3601000000000000
(1435150354.150301) vcan0 004#3701000000000000
(1435150354.150720) vcan0 004#3801000000000000
(1435150354.151163) vcan0 004#3901000000000000
(1435150354.151476) vcan0 004#3A01000000000000
(1435150354.151851) vcan0 004#3B01000000000000
(1435150354.152544) vcan0 004#3C01000000000000
(1435150354.153077) vcan0 004#3D01000000000000
(1435150354.153409) vcan0 004#3E01000000000000
(1435150354.153764) vcan0 004#3F01000000000000
(1435150354.154425) vcan0 004#4001000000000000
(1435150354.154787) vcan0 004#4101000000000000
(1435150354.155246) vcan0 004#4201000000000000
(1435150354.155467) vcan0 004#4301000000000000
(1435150354.156129) vcan0 004#4401000000000000
(1435150354.156619) vcan0 004#4501000000000000
(1435150354.156933) vcan0 004#4601000000000000
(1435150354.157306) vcan0 004#4701000000000000
(1435150354.157713) vcan0 004#4801000000000000
(1435150354.158299) vcan0 004#4901000000000000
(1435150354.158722) vcan0 004#4A01000000000000
(1435150354.159077) vcan0 004#4B01000000000000
(1435150354.159408) vcan0 004#4C01000000000000
(1435150354.159754) vcan0 004#4D01000000000000
(1435150354.159943) vcan0 004#4E01000000000000
(1435150354.160620) vcan0 004#4F01000000000000
(1435150354.161119) vcan0 004#5001000000000000
(1435150354.161442) vcan0 004#5101000000000000
(1435150354.161810) vcan0 004#5201000000000000
(1435150354.161973) vcan0 004#5301000000000000
(1435150354.162658) vcan0 004#5401000000000000
(1435150354.163143) vcan0 004#5501000000000000
(1435150354.163453) vcan0 004#5601000000000000
(1435150354.163829) vcan0 004#5701000000000000
(1435150354.164259) vcan0 004#5801000000000000
(1435150354.164707) vcan0 004#5901000000000000
(1435150354.165036) vcan0 004#5A01000000000000
(1435150354.165388) vcan0 004#5B01000000000000
(1435150354.165656) vcan0 004#5C01000000000000
(1435150354.166416) vcan0 004#5D01000000000000
(1435150354.166767) vcan0 004#5E01000000000000
(1435150354.167035) vcan0 004#5F01000000000000
(1435150354.167453) vcan0 004#6001000000000000
(1435150354.167691) vcan0 004#6101000000000000
(1435150354.168110) vcan0 004#6201000000000000
(1435150354.168634) vcan0 004#6301000000000000
(1435150354.169122) vcan0 004#6401000000000000
(1435150354.169442) vcan0 004#6501000000000000
(1435150354.169701) vcan0 004#6601000000000000
(1435150354.170065) vcan0 004#6701000000000000
(1435150354.170719) vcan0 004#6801000000000000
(1435150354.171174) vcan0 004#6901000000000000
(1435150354.171486) vcan0 004#6A01000000000000
(1435150354.171858) vcan0 004#6B01000000000000
(1435150354.172175) vcan0 004#6C01000000000000
(1435150354.172966) vcan0 004#6D01000000000000
(1435150354.173323) vcan0 004#6E01000000000000
(1435150354.173581) vcan0 004#6F01000000000000
(1435150354.174010) vcan0 004#7001000000000000
(1435150354.174267) vcan0 004#7101000000000000
(1435150354.174580) vcan0 004#7201000000000000
(1435150354.175231) vcan0 004#7301000000000000
(1435150354.175680) vcan0 004#7401000000000000
(1435150354.175971) vcan0 004#7501000000000000
(1435150354.176366) vcan0 004#7601000000000000
(1435150354.176631) vcan0 004#7701000000000000
(1435150354.177070) vcan0 004#7801000000000000
(1435150354.177621) vcan0 004#7901000000000000
(1435150354.178205) vcan0 004#7A01000000000000
(1435150354.178605) vcan0 004#7B01000000000000
(1435150354.179121) vcan0 004#7C01000000000000
(1435150354.179775) vcan0 004#7D01000000000000
(1435150354.180019) vcan0 004#7E01000000000000
(1435150354.180258) vcan0 004#7F01000000000000
(1435150354.180499) vcan0 004#8001000000000000
(1435150354.180747) vcan0 004#8101000000000000
(1435150354.181003) vcan0 004#8201000000000000
(1435150354.181398) vcan0 004#8301000000000000
(1435150354.181682) vcan0 004#8401000000000000
(1435150354.181914) vcan0 004#8501000000000000
(1435150354.182167) vcan0 004#8601000000000000
(1435150354.182400) vcan0 004#8701000000000000
(1435150354.182644) vcan0 004#8801000000000000
(1435150354.182877) vcan0 004#8901000000000000
(1435150354.183140) vcan0 004#8A01000000000000
(1435150354.183374) vcan0 004#8B01000000000000
(1435150354.183633) vcan0 004#8C01000000000000
(1435150354.183867) vcan0 004#8D01000000000000
(1435150354.184134) vcan0 004#8E01000000000000
(1435150354.184380) vcan0 004#8F01000000000000
(1435150354.184644) vcan0 004#9001000000000000
(1435150354.184877) vcan0 004#9101000000000000
(1435150354.185140) vcan0 004#9201000000000000
(1435150354.185590) vcan0 004#9301000000000000
(1435150354.186004) vcan0 004#9401000000000000
(1435150354.186249) vcan0 004#9501000000000000
(1435150354.186487) vcan0 004#9601000000000000
(1435150354.186722) vcan0 004#9701000000000000
(1435150354.186956) vcan0 004#9801000000000000
(1435150354.187189) vcan0 004#9901000000000000
(1435150354.187422) vcan0 004#9A01000000000000
(1435150354.187670) vcan0 004#9B01000000000000
(1435150354.187907) vcan0 004#9C01000000000000
(1435150354.188149) vcan0 004#9D01000000000000
(1435150354.188382) vcan0 004#9E01000000000000
(1435150354.188635) vcan0 004#9F01000000000000
(1435150354.188864) vcan0 004#A001000000000000
(1435150354.189124) vcan0 004#A101000000000000
(1435150354.189360) vcan0 004#A201000000000000
(1435150354.189605) vcan0 004#A301000000000000
(1435150354.189800) vcan0 004#A401000000000000
(1435150354.190028) vcan0 004#A501000000000000
(1435150354.190263) vcan0 004#A601000000000000
(1435150354.190497) vcan0 004#A701000000000000
(1435150354.190729) vcan0 004#A801000000000000
(1435150354.190959) vcan0 004#A901000000000000
(1435150354.191193) vcan0 004#AA01000000000000
(1435150354.191427) vcan0 004#AB01000000000000
(1435150354.191660) vcan0 004#AC01000000000000
(1435150354.191893) vcan0 004#AD01000000000000
(1435150354.192137) vcan0 004#AE01000000000000
(1435150354.192370) vcan0 004#AF01000000000000
(1435150354.192616) vcan0 004#B001000000000000
(1435150354.192863) vcan0 004#B101000000000000
(1435150354.193109) vcan0 004#B201000000000000
(1435150354.193371) vcan0 004#B301000000000000
(1435150354.193624) vcan0 004#B401000000000000
(1435150354.193866) vcan0 004#B501000000000000
(1435150354.194117) vcan0 004#B601000000000000
(1435150354.194374) vcan0 004#B701000000000000
(1435150354.194761) vcan0 004#B801000000000000
(1435150354.195053) vcan0 004#B901000000000000
(1435150354.195245) vcan0 004#BA01000000000000
(1435150354.195483) vcan0 004#BB01000000000000
(1435150354.195723) vcan0 004#BC01000000000000
(1435150354.195963) vcan0 004#BD01000000000000
(1435150354.196238) vcan0 004#BE01000000000000
(1435150354.196586) vcan0 004#BF01000000000000
(1435150354.197029) vcan0 004#C001000000000000
(1435150354.197414) vcan0 004#C101000000000000
(1435150354.197885) vcan0 004#C201000000000000
(1435150354.198074) vcan0 004#C301000000000000
(1435150354.198307) vcan0 004#C401000000000000
(1435150354.198534) vcan0 004#C501000000000000
(1435150354.198767) vcan0 004#C601000000000000
(1435150354.198993) vcan0 004#C701000000000000
(1435150354.199221) vcan0 004#C801000000000000
(1435150354.199462) vcan0 004#C901000000000000
(1435150354.199720) vcan0 004#CA01000000000000
(1435150354.199970) vcan0 004#CB01000000000000
(1435150354.200220) vcan0 004#CC01000000000000
(1435150354.200469) vcan0 004#CD01000000000000
(1435150354.200718) vcan0 004#CE01000000000000
(1435150354.200966) vcan0 004#CF01000000000000
(1435150354.201215) vcan0 004#D001000000000000
(1435150354.201464) vcan0 004#D101000000000000
(1435150354.201712) vcan0 004#D201000000000000
(1435150354.201949) vcan0 004#D301000000000000
(1435150354.202186) vcan0 004#D401000000000000
(1435150354.202432) vcan0 004#D501000000000000
(1435150354.202673) vcan0 004#D601000000000000
(1435150354.202905) vcan0 004#D701000000000000
(1435150354.203158) vcan0 004#D801000000000000
(1435150354.203398) vcan0 004#D901000000000000
(1435150354.203656) vcan0 004#DA01000000000000
(1435150354.203894) vcan0 004#DB01000000000000
(1435150354.204151) vcan0 004#DC01000000000000
(1435150354.204390) vcan0 004#DD01000000000000
(1435150354.204656) vcan0 004#DE01000000000000
(1435150354.204894) vcan0 004#DF01000000000000
(1435150354.205151) vcan0 004#E001000000000000
(1435150354.205389) vcan0 004#E101000000000000
(1435150354.205628) vcan0 004#E201000000000000
(1435150354.205867) vcan0 004#E301000000000000
(1435150354.206116) vcan0 004#E401000000000000
(1435150354.206364) vcan0 004#E501000000000000
(1435150354.206615) vcan0 004#E601000000000000
(1435150354.206863) vcan0 004#E701000000000000
(1435150354.207117) vcan0 004#E801000000000000
(1435150354.207364) vcan0 004#E901000000000000
(1435150354.207613) vcan0 004#EA01000000000000
(1435150354.207859) vcan0 004#EB01000000000000
(1435150354.208108) vcan0 004#EC01000000000000
(1435150354.208356) vcan0 004#ED01000000000000
(1435150354.208604) vcan0 004#EE01000000000000
(1435150354.208853) vcan0 004#EF01000000000000
(1435150354.209091) vcan0 004#F001000000000000
(1435150354.209351) vcan0 004#F101000000000000
(1435150354.209598) vcan0 004#F201000000000000
(1435150354.209841) vcan0 004#F301000000000000
(1435150354.210070) vcan0 004#F401000000000000
(1435150354.210301) vcan0 004#F501000000000000
(1435150354.210530) vcan0 004#F601000000000000
(1435150354.210760) vcan0 004#F701000000000000
(1435150354.210989) vcan0 004#F801000000000000
(1435150354.211220) vcan0 004#F901000000000000
(1435150354.211456) vcan0 004#FA01000000000000
(1435150354.212096) vcan0 004#FB01000000000000
(1435150354.212301) vcan0 004#FC01000000000000
(1435150354.212436) vcan0 004#FD01000000000000
(1435150354.212667) vcan0 004#FE01000000000000
(1435150354.212897) vcan0 004#FF01000000000000
(1435150354.213130) vcan0 004#0002000000000000
(1435150354.213362) vcan0 004#0102000000000000
(1435150354.213612) vcan0 004#0202000000000000
(1435150354.213846) vcan0 004#0302000000000000
(1435150354.214081) vcan0 004#0402000000000000
(1435150354.214330) vcan0 004#0502000000000000
(1435150354.214566) vcan0 004#0602000000000000
(1435150354.214821) vcan0 004#0702000000000000
(1435150354.215066) vcan0 004#0802000000000000
(1435150354.215336) vcan0 004#0902000000000000
(1435150354.215618) vcan0 004#0A02000000000000
(1435150354.215869) vcan0 004#0B02000000000000
(1435150354.216131) vcan0 004#0C02000000000000
(1435150354.216365) vcan0 004#0D02000000000000
(1435150354.216607) vcan0 004#0E02000000000000
(1435150354.216856) vcan0 004#0F02000000000000
(1435150354.217128) vcan0 004#1002000000000000
(1435150354.217368) vcan0 004#1102000000000000
(1435150354.217626) vcan0 004#1202000000000000
(1435150354.217857) vcan0 004#1302000000000000
(1435150354.218089) vcan0 004#1402000000000000
(1435150354.218330) vcan0 004#1502000000000000
(1435150354.218560) vcan0 004#1602000000000000
(1435150354.218823) vcan0 004#1702000000000000
(1435150354.219052) vcan0 004#1802000000000000
(1435150354.219328) vcan0 004#1902000000000000
(1435150354.219564) vcan0 004#1A02000000000000
(1435150354.219816) vcan0 004#1B02000000000000
(1435150354.220046) vcan0 004#1C02000000000000
(1435150354.220274) vcan0 004#1D02000000000000
(1435150354.220513) vcan0 004#1E02000000000000
(1435150354.220750) vcan0 004#1F02000000000000
(1435150354.220988) vcan0 004#2002000000000000
(1435150354.221226) vcan0 004#2102000000000000
(1435150354.221463) vcan0 004#2202000000000000
(1435150354.221702) vcan0 004#2302000000000000
(1435150354.221938) vcan0 004#2402000000000000
(1435150354.222185) vcan0 004#2502000000000000
(1435150354.222423) vcan0 004#2602000000000000
(1435150354.222670) vcan0 004#2702000000000000
(1435150354.222907) vcan0 004#2802000000000000
(1435150354.223155) vcan0 004#2902000000000000
(1435150354.223392) vcan0 004#2A02000000000000
(1435150354.223650) vcan0 004#2B02000000000000
(1435150354.223888) vcan0 004#2C02000000000000
(1435150354.224150) vcan0 004#2D02000000000000
(1435150354.224387) vcan0 004#2E02000000000000
(1435150354.224647) vcan0 004#2F02000000000000
(1435150354.224885) vcan0 004#3002000000000000
(1435150354.225142) vcan0 004#3102000000000000
(1435150354.225379) vcan0 004#3202000000000000
(1435150354.225629) vcan0 004#3302000000000000
(1435150354.225859) vcan0 004#3402000000000000
(1435150354.226099) vcan0 004#3502000000000000
(1435150354.226361) vcan0 004#3602000000000000
(1435150354.226615) vcan0 004#3702000000000000
(1435150354.226853) vcan0 004#3802000000000000
(1435150354.227098) vcan0 004#3902000000000000
(1435150354.227330) vcan0 004#3A02000000000000
(1435150354.227559) vcan0 004#3B02000000000000
(1435150354.227821) vcan0 004#3C02000000000000
(1435150354.228050) vcan0 004#3D02000000000000
(1435150354.228313) vcan0 004#3E02000000000000
(1435150354.228534) vcan0 004#3F02000000000000
(1435150354.228764) vcan0 004#4002000000000000
(1435150354.228993) vcan0 004#4102000000000000
(1435150354.229254) vcan0 004#4202000000000000
(1435150354.229492) vcan0 004#4302000000000000
(1435150354.229734) vcan0 004#4402000000000000
(1435150354.229962) vcan0 004#4502000000000000
(1435150354.230192) vcan0 004#4602000000000000
(1435150354.230433) vcan0 004#4702000000000000
(1435150354.230663) vcan0 004#4802000000000000
(1435150354.230893) vcan0 004#4902000000000000
(1435150354.231142) vcan0 004#4A02000000000000
(1435150354.231370) vcan0 004#4B02000000000000
(1435150354.231610) vcan0 004#4C02000000000000
(1435150354.231849) vcan0 004#4D02000000000000
(1435150354.232078) vcan0 004#4E02000000000000
(1435150354.232338) vcan0 004#4F02000000000000
(1435150354.232567) vcan0 004#5002000000000000
(1435150354.232827) vcan0 004#5102000000000000
(1435150354.233056) vcan0 004#5202000000000000
(1435150354.233319) vcan0 004#5302000000000000
(1435150354.233548) vcan0 004#5402000000000000
(1435150354.233804) vcan0 004#5502000000000000
(1435150354.233979) vcan0 004#5602000000000000
(1435150354.234209) vcan0 004#5702000000000000
(1435150354.234445) vcan0 004#5802000000000000
(1435150354.235173) vcan0 004#5902000000000000
(1435150354.235408) vcan0 004#5A02000000000000
(1435150354.235646) vcan0 004#5B02000000000000
(1435150354.235877) vcan0 004#5C02000000000000
(1435150354.236110) vcan0 004#5D02000000000000
(1435150354.236340) vcan0 004#5E02000000000000
(1435150354.236570) vcan0 004#5F02000000000000
(1435150354.236814) vcan0 004#6002000000000000
(1435150354.237044) vcan0 004#6102000000000000
(1435150354.237321) vcan0 004#6202000000000000
(1435150354.237552) vcan0 004#6302000000000000
(1435150354.237843) vcan0 004#6402000000000000
(1435150354.238010) vcan0 004#6502000000000000
(1435150354.238239) vcan0 004#6602000000000000
(1435150354.238465) vcan0 004#6702000000000000
(1435150354.238691) vcan0 004#6802000000000000
(1435150354.238930) vcan0 004#6902000000000000
(1435150354.239161) vcan0 004#6A02000000000000
(1435150354.239389) vcan0 004#6B02000000000000
(1435150354.239623) vcan0 004#6C02000000000000
(1435150354.239872) vcan0 004#6D02000000000000
(1435150354.240114) vcan0 004#6E02000000000000
(1435150354.240354) vcan0 004#6F02000000000000
(1435150354.240542) vcan0 004#7002000000000000
(1435150354.240770) vcan0 004#7102000000000000
(1435150354.241021) vcan0 004#7202000000000000
(1435150354.241253) vcan0 004#7302000000000000
(1435150354.241490) vcan0 004#7402000000000000
(1435150354.241725) vcan0 004#7502000000000000
(1435150354.241951) vcan0 004#7602000000000000
(1435150354.242276) vcan0 004#7702000000000000
(1435150354.242546) vcan0 004#7802000000000000
(1435150354.244499) vcan0 004#7902000000000000
(1435150354.244752) vcan0 004#7A02000000000000
(1435150354.244992) vcan0 004#7B02000000000000
(1435150354.245225) vcan0 004#7C02000000000000
(1435150354.245461) vcan0 004#7D02000000000000
(1435150354.245696) vcan0 004#7E02000000000000
(1435150354.245873) vcan0 004#7F02000000000000
(1435150354.246124) vcan0 004#8002000000000000
(1435150354.246365) vcan0 004#8102000000000000
(1435150354.246620) vcan0 004#8202000000000000
(1435150354.246867) vcan0 004#8302000000000000
(1435150354.247122) vcan0 004#8402000000000000
(1435150354.247395) vcan0 004#8502000000000000
(1435150354.247661) vcan0 004#8602000000000000
(1435150354.247926) vcan0 004#8702000000000000
(1435150354.248190) vcan0 004#8802000000000000
(1435150354.248454) vcan0 004#8902000000000000
(1435150354.248719) vcan0 004#8A02000000000000
(1435150354.248982) vcan0 004#8B02000000000000
(1435150354.249246) vcan0 004#8C02000000000000
(1435150354.249525) vcan0 004#8D02000000000000
(1435150354.249831) vcan0 004#8E02000000000000
(1435150354.250100) vcan0 004#8F02000000000000
(1435150354.250427) vcan0 004#9002000000000000
(1435150354.251179) vcan0 004#9102000000000000
(1435150354.251474) vcan0 004#9202000000000000
(1435150354.251746) vcan0 004#9302000000000000
(1435150354.252034) vcan0 004#9402000000000000
(1435150354.252313) vcan0 004#9502000000000000
(1435150354.252574) vcan0 004#9602000000000000
(1435150354.252853) vcan0 004#9702000000000000
(1435150354.253120) vcan0 004#9802000000000000
(1435150354.253389) vcan0 004#9902000000000000
(1435150354.253661) vcan0 004#9A02000000000000
(1435150354.253919) vcan0 004#9B02000000000000
(1435150354.254208) vcan0 004#9C02000000000000
(1435150354.254499) vcan0 004#9D02000000000000
(1435150354.254785) vcan0 004#9E02000000000000
(1435150354.256022) vcan0 004#9F02000000000000
(1435150354.256282) vcan0 004#A002000000000000
(1435150354.256539) vcan0 004#A102000000000000
(1435150354.256837) vcan0 004#A202000000000000
(1435150354.257119) vcan0 004#A302000000000000
(1435150354.257393) vcan0 004#A402000000000000
(1435150354.257667) vcan0 004#A502000000000000
(1435150354.257924) vcan0 004#A602000000000000
(1435150354.258195) vcan0 004#A702000000000000
(1435150354.258473) vcan0 004#A802000000000000
(1435150354.258731) vcan0 004#A902000000000000
(1435150354.258987) vcan0 004#AA02000000000000
(1435150354.259243) vcan0 004#AB02000000000000
(1435150354.259514) vcan0 004#AC02000000000000
(1435150354.259788) vcan0 004#AD02000000000000
(1435150354.260043) vcan0 004#AE02000000000000
(1435150354.260335) vcan0 004#AF02000000000000
(1435150354.260598) vcan0 004#B002000000000000
(1435150354.260886) vcan0 004#B102000000000000
(1435150354.261161) vcan0 004#B202000000000000
(1435150354.261432) vcan0 004#B302000000000000
(1435150354.261696) vcan0 004#B402000000000000
(1435150354.261961) vcan0 004#B502000000000000
(1435150354.262226) vcan0 004#B602000000000000
(1435150354.262490) vcan0 004#B702000000000000
(1435150354.262754) vcan0 004#B802000000000000
(1435150354.263041) vcan0 004#B902000000000000
(1435150354.263329) vcan0 004#BA02000000000000
(1435150354.263593) vcan0 004#BB02000000000000
(1435150354.263884) vcan0 004#BC02000000000000
(1435150354.264160) vcan0 004#BD02000000000000
(1435150354.264433) vcan0 004#BE02000000000000
(1435150354.264698) vcan0 004#BF02000000000000
(1435150354.264962) vcan0 004#C002000000000000
(1435150354.265227) vcan0 004#C102000000000000
(1435150354.265490) vcan0 004#C202000000000000
(1435150354.265754) vcan0 004#C302000000000000
(1435150354.266008) vcan0 004#C402000000000000
(1435150354.266264) vcan0 004#C502000000000000
(1435150354.266974) vcan0 004#C602000000000000
(1435150354.267233) vcan0 004#C702000000000000
(1435150354.267506) vcan0 004#C802000000000000
(1435150354.267804) vcan0 004#C902000000000000
(1435150354.268061) vcan0 004#CA02000000000000
(1435150354.268352) vcan0 004#CB02000000000000
(1435150354.268619) vcan0 004#CC02000000000000
(1435150354.268884) vcan0 004#CD02000000000000
(1435150354.269149) vcan0 004#CE02000000000000
(1435150354.269391) vcan0 004#CF02000000000000
(1435150354.269660) vcan0 004#D002000000000000
(1435150354.269926) vcan0 004#D102000000000000
(1435150354.271167) vcan0 004#D202000000000000
(1435150354.271439) vcan0 004#D302000000000000
(1435150354.271705) vcan0 004#D402000000000000
(1435150354.271970) vcan0 004#D502000000000000
(1435150354.272234) vcan0 004#D602000000000000
(1435150354.272498) vcan0 004#D702000000000000
(1435150354.272777) vcan0 004#D802000000000000
(1435150354.273053) vcan0 004#D902000000000000
(1435150354.273358) vcan0 004#DA02000000000000
(1435150354.273634) vcan0 004#DB02000000000000
(1435150354.273899) vcan0 004#DC02000000000000
(1435150354.274171) vcan0 004#DD02000000000000
(1435150354.274443) vcan0 004#DE02000000000000
(1435150354.274710) vcan0 004#DF02000000000000
(1435150354.274973) vcan0 004#E002000000000000
(1435150354.275237) vcan0 004#E102000000000000
(1435150354.275501) vcan0 004#E202000000000000
(1435150354.275765) vcan0 004#E302000000000000
(1435150354.276029) vcan0 004#E402000000000000
(1435150354.276357) vcan0 004#E502000000000000
(1435150354.276658) vcan0 004#E602000000000000
(1435150354.276928) vcan0 004#E702000000000000
(1435150354.277197) vcan0 004#E802000000000000
(1435150354.277465) vcan0 004#E902000000000000
(1435150354.277735) vcan0 004#EA02000000000000
(1435150354.277998) vcan0 004#EB02000000000000
(1435150354.278258) vcan0 004#EC02000000000000
(1435150354.278517) vcan0 004#ED02000000000000
(1435150354.278850) vcan0 004#EE02000000000000
(1435150354.279120) vcan0 004#EF02000000000000
(1435150354.279391) vcan0 004#F002000000000000
(1435150354.279659) vcan0 004#F102000000000000
(1435150354.279929) vcan0 004#F202000000000000
(1435150354.280188) vcan0 004#F302000000000000
(1435150354.280447) vcan0 004#F402000000000000
(1435150354.280707) vcan0 004#F502000000000000
(1435150354.280965) vcan0 004#F602000000000000
(1435150354.281239) vcan0 004#F702000000000000
(1435150354.281513) vcan0 004#F802000000000000
(1435150354.281789) vcan0 004#F902000000000000
(1435150354.282020) vcan0 004#FA02000000000000
(1435150354.282294) vcan0 004#FB02000000000000
(1435150354.282936) vcan0 004#FC02000000000000
(1435150354.283209) vcan0 004#FD02000000000000
(1435150354.283482) vcan0 004#FE02000000000000
(1435150354.283753) vcan0 004#FF02000000000000
(1435150354.284024) vcan0 004#0003000000000000
(1435150354.284297) vcan0 004#0103000000000000
(1435150354.284568) vcan0 004#0203000000000000
(1435150354.284890) vcan0 004#0303000000000000
(1435150354.285172) vcan0 004#0403000000000000
(1435150354.285443) vcan0 004#0503000000000000
(1435150354.285712) vcan0 004#0603000000000000
(1435150354.285972) vcan0 004#0703000000000000
(1435150354.286232) vcan0 004#0803000000000000
(1435150354.286491) vcan0 004#0903000000000000
(1435150354.286750) vcan0 004#0A03000000000000
(1435150354.287008) vcan0 004#0B03000000000000
(1435150354.287268) vcan0 004#0C03000000000000
(1435150354.287527) vcan0 004#0D03000000000000
(1435150354.287821) vcan0 004#0E03000000000000
(1435150354.288079) vcan0 004#0F03000000000000
(1435150354.288393) vcan0 004#1003000000000000
(1435150354.288663) vcan0 004#1103000000000000
(1435150354.288922) vcan0 004#1203000000000000
(1435150354.289190) vcan0 004#1303000000000000
(1435150354.289463) vcan0 004#1403000000000000
(1435150354.289761) vcan0 004#1503000000000000
(1435150354.290025) vcan0 004#1603000000000000
(1435150354.290391) vcan0 004#1703000000000000
(1435150354.290664) vcan0 004#1803000000000000
(1435150354.290923) vcan0 004#1903000000000000
(1435150354.291235) vcan0 004#1A03000000000000
(1435150354.291491) vcan0 004#1B03000000000000
(1435150354.291751) vcan0 004#1C03000000000000
(1435150354.292010) vcan0 004#1D03000000000000
(1435150354.292270) vcan0 004#1E03000000000000
(1435150354.292723) vcan0 004#1F03000000000000
(1435150354.292980) vcan0 004#2003000000000000
(1435150354.293241) vcan0 004#2103000000000000
(1435150354.293500) vcan0 004#2203000000000000
(1435150354.293767) vcan0 004#2303000000000000
(1435150354.294011) vcan0 004#2403000000000000
(1435150354.294277) vcan0 004#2503000000000000
(1435150354.294538) vcan0 004#2603000000000000
(1435150354.294841) vcan0 004#2703000000000000
(1435150354.295100) vcan0 004#2803000000000000
(1435150354.295349) vcan0 004#2903000000000000
(1435150354.295606) vcan0 004#2A03000000000000
(1435150354.295891) vcan0 004#2B03000000000000
(1435150354.296169) vcan0 004#2C03000000000000
(1435150354.296437) vcan0 004#2D03000000000000
(1435150354.296709) vcan0 004#2E03000000000000
(1435150354.296948) vcan0 004#2F03000000000000
(1435150354.297189) vcan0 004#3003000000000000
(1435150354.297429) vcan0 004#3103000000000000
(1435150354.297677) vcan0 004#3203000000000000
(1435150354.297920) vcan0 004#3303000000000000
(1435150354.298184) vcan0 004#3403000000000000
(1435150354.298445) vcan0 004#3503000000000000
(1435150354.298698) vcan0 004#3603000000000000
(1435150354.298952) vcan0 004#3703000000000000
(1435150354.299191) vcan0 004#3803000000000000
(1435150354.299428) vcan0 004#3903000000000000
(1435150354.299665) vcan0 004#3A03000000000000
(1435150354.299901) vcan0 004#3B03000000000000
(1435150354.300213) vcan0 004#3C03000000000000
(1435150354.300449) vcan0 004#3D03000000000000
(1435150354.300686) vcan0 004#3E03000000000000
(1435150354.300921) vcan0 004#3F03000000000000
(1435150354.301157) vcan0 004#4003000000000000
(1435150354.301390) vcan0 004#4103000000000000
(1435150354.302756) vcan0 004#4203000000000000
(1435150354.303063) vcan0 004#4303000000000000
(1435150354.303338) vcan0 004#4403000000000000
(1435150354.303618) vcan0 004#4503000000000000
(1435150354.303898) vcan0 004#4603000000000000
(1435150354.304184) vcan0 004#4703000000000000
(1435150354.304455) vcan0 004#4803000000000000
(1435150354.304726) vcan0 004#4903000000000000
(1435150354.304994) vcan0 004#4A03000000000000
(1435150354.305266) vcan0 004#4B03000000000000
(1435150354.305535) vcan0 004#4C03000000000000
(1435150354.305782) vcan0 004#4D03000000000000
(1435150354.306020) vcan0 004#4E03000000000000
(1435150354.306357) vcan0 004#4F03000000000000
(1435150354.307063) vcan0 004#5003000000000000
(1435150354.307381) vcan0 004#5103000000000000
(1435150354.307666) vcan0 004#5203000000000000
(1435150354.307946) vcan0 004#5303000000000000
(1435150354.308225) vcan0 004#5403000000000000
(1435150354.308503) vcan0 004#5503000000000000
(1435150354.308780) vcan0 004#5603000000000000
(1435150354.309056) vcan0 004#5703000000000000
(1435150354.309352) vcan0 004#5803000000000000
(1435150354.309643) vcan0 004#5903000000000000
(1435150354.309911) vcan0 004#5A03000000000000
(1435150354.310178) vcan0 004#5B03000000000000
(1435150354.310442) vcan0 004#5C03000000000000
(1435150354.310701) vcan0 004#5D03000000000000
(1435150354.310960) vcan0 004#5E03000000000000
(1435150354.311224) vcan0 004#5F03000000000000
(1435150354.311481) vcan0 004#6003000000000000
(1435150354.311771) vcan0 004#6103000000000000
(1435150354.312059) vcan0 004#6203000000000000
(1435150354.312380) vcan0 004#6303000000000000
(1435150354.312671) vcan0 004#6403000000000000
(1435150354.312968) vcan0 004#6503000000000000
(1435150354.314153) vcan0 004#6603000000000000
(1435150354.314447) vcan0 004#6703000000000000
(1435150354.315159) vcan0 004#6803000000000000
(1435150354.315434) vcan0 004#6903000000000000
(1435150354.315704) vcan0 004#6A03000000000000
(1435150354.315973) vcan0 004#6B03000000000000
(1435150354.316240) vcan0 004#6C03000000000000
(1435150354.316507) vcan0 004#6D03000000000000
(1435150354.316927) vcan0 004#6E03000000000000
(1435150354.317201) vcan0 004#6F03000000000000
(1435150354.317478) vcan0 004#7003000000000000
(1435150354.317756) vcan0 004#7103000000000000
(1435150354.318013) vcan0 004#7203000000000000
(1435150354.318280) vcan0 004#7303000000000000
(1435150354.318545) vcan0 004#7403000000000000
(1435150354.318844) vcan0 004#7503000000000000
(1435150354.319128) vcan0 004#7603000000000000
(1435150354.319390) vcan0 004#7703000000000000
(1435150354.319655) vcan0 004#7803000000000000
(1435150354.319926) vcan0 004#7903000000000000
(1435150354.320188) vcan0 004#7A03000000000000
(1435150354.320455) vcan0 004#7B03000000000000
(1435150354.320724) vcan0 004#7C03000000000000
(1435150354.320995) vcan0 004#7D03000000000000
(1435150354.321263) vcan0 004#7E03000000000000
(1435150354.321559) vcan0 004#7F03000000000000
(1435150354.321868) vcan0 004#8003000000000000
(1435150354.327067) vcan0 004#8103000000000000
(1435150354.327518) vcan0 004#8203000000000000
(1435150354.327901) vcan0 004#8303000000000000
(1435150354.328240) vcan0 004#8403000000000000
(1435150354.329331) vcan0 004#8503000000000000
(1435150354.329661) vcan0 004#8603000000000000
(1435150354.329964) vcan0 004#8703000000000000
(1435150354.330277) vcan0 004#8803000000000000
(1435150354.331154) vcan0 004#8903000000000000
(1435150354.331478) vcan0 004#8A03000000000000
(1435150354.331804) vcan0 004#8B03000000000000
(1435150354.332128) vcan0 004#8C03000000000000
(1435150354.332443) vcan0 004#8D03000000000000
(1435150354.332747) vcan0 004#8E03000000000000
(1435150354.333048) vcan0 004#8F03000000000000
(1435150354.333403) vcan0 004#9003000000000000
(1435150354.333760) vcan0 004#9103000000000000
(1435150354.334027) vcan0 004#9203000000000000
(1435150354.334387) vcan0 004#9303000000000000
(1435150354.334681) vcan0 004#9403000000000000
(1435150354.334964) vcan0 004#9503000000000000
(1435150354.335232) vcan0 004#9603000000000000
(1435150354.335504) vcan0 004#9703000000000000
(1435150354.335776) vcan0 004#9803000000000000
(1435150354.336048) vcan0 004#9903000000000000
(1435150354.336342) vcan0 004#9A03000000000000
(1435150354.336618) vcan0 004#9B03000000000000
(1435150354.336889) vcan0 004#9C03000000000000
(1435150354.337172) vcan0 004#9D03000000000000
(1435150354.337443) vcan0 004#9E03000000000000
(1435150354.337714) vcan0 004#9F03000000000000
(1435150354.337977) vcan0 004#A003000000000000
(1435150354.338241) vcan0 004#A103000000000000
(1435150354.338949) vcan0 004#A203000000000000
(1435150354.339286) vcan0 004#A303000000000000
(1435150354.339557) vcan0 004#A403000000000000
(1435150354.339857) vcan0 004#A503000000000000
(1435150354.340130) vcan0 004#A603000000000000
(1435150354.340394) vcan0 004#A703000000000000
(1435150354.340656) vcan0 004#A803000000000000
(1435150354.340918) vcan0 004#A903000000000000
(1435150354.341180) vcan0 004#AA03000000000000
(1435150354.341440) vcan0 004#AB03000000000000
(1435150354.341703) vcan0 004#AC03000000000000
(1435150354.342094) vcan0 004#AD03000000000000
(1435150354.342377) vcan0 004#AE03000000000000
(1435150354.342647) vcan0 004#AF03000000000000
(1435150354.342912) vcan0 004#B003000000000000
(1435150354.343177) vcan0 004#B103000000000000
(1435150354.343432) vcan0 004#B203000000000000
(1435150354.343687) vcan0 004#B303000000000000
(1435150354.343942) vcan0 004#B403000000000000
(1435150354.344196) vcan0 004#B503000000000000
(1435150354.344451) vcan0 004#B603000000000000
(1435150354.344708) vcan0 004#B703000000000000
(1435150354.344964) vcan0 004#B803000000000000
(1435150354.345219) vcan0 004#B903000000000000
(1435150354.345491) vcan0 004#BA03000000000000
(1435150354.345750) vcan0 004#BB03000000000000
(1435150354.346019) vcan0 004#BC03000000000000
(1435150354.346319) vcan0 004#BD03000000000000
(1435150354.346969) vcan0 004#BE03000000000000
(1435150354.347329) vcan0 004#BF03000000000000
(1435150354.347603) vcan0 004#C003000000000000
(1435150354.347876) vcan0 004#C103000000000000
(1435150354.348143) vcan0 004#C203000000000000
(1435150354.348418) vcan0 004#C303000000000000
(1435150354.348682) vcan0 004#C403000000000000
(1435150354.348945) vcan0 004#C503000000000000
(1435150354.349210) vcan0 004#C603000000000000
(1435150354.349488) vcan0 004#C703000000000000
(1435150354.349757) vcan0 004#C803000000000000
(1435150354.350008) vcan0 004#C903000000000000
(1435150354.350273) vcan0 004#CA03000000000000
(1435150354.350546) vcan0 004#CB03000000000000
(1435150354.350836) vcan0 004#CC03000000000000
(1435150354.351101) vcan0 004#CD03000000000000
(1435150354.351365) vcan0 004#CE03000000000000
(1435150354.351630) vcan0 004#CF03000000000000
(1435150354.351911) vcan0 004#D003000000000000
(1435150354.352166) vcan0 004#D103000000000000
(1435150354.352421) vcan0 004#D203000000000000
(1435150354.352675) vcan0 004#D303000000000000
(1435150354.352929) vcan0 004#D403000000000000
(1435150354.353184) vcan0 004#D503000000000000
(1435150354.353438) vcan0 004#D603000000000000
(1435150354.353698) vcan0 004#D703000000000000
(1435150354.353954) vcan0 004#D803000000000000
(1435150354.354209) vcan0 004#D903000000000000
(1435150354.354905) vcan0 004#DA03000000000000
(1435150354.355179) vcan0 004#DB03000000000000
(1435150354.355464) vcan0 004#DC03000000000000
(1435150354.355741) vcan0 004#DD03000000000000
(1435150354.356019) vcan0 004#DE03000000000000
(1435150354.356303) vcan0 004#DF03000000000000
(1435150354.356580) vcan0 004#E003000000000000
(1435150354.356872) vcan0 004#E103000000000000
(1435150354.357119) vcan0 004#E203000000000000
(1435150354.357364) vcan0 004#E303000000000000
(1435150354.357618) vcan0 004#E403000000000000
(1435150354.357854) vcan0 004#E503000000000000
(1435150354.358088) vcan0 004#E603000000000000
(1435150354.358333) vcan0 004#E703000000000000
(1435150354.358566) vcan0 004#E803000000000000
(1435150354.358828) vcan0 004#E903000000000000
(1435150354.359058) vcan0 004#EA03000000000000
(1435150354.359324) vcan0 004#EB03000000000000
(1435150354.359559) vcan0 004#EC03000000000000
(1435150354.360696) vcan0 004#ED03000000000000
(1435150354.361022) vcan0 004#EE03000000000000
(1435150354.361309) vcan0 004#EF03000000000000
(1435150354.361598) vcan0 004#F003000000000000
(1435150354.361869) vcan0 004#F103000000000000
(1435150354.362135) vcan0 004#F203000000000000
(1435150354.362410) vcan0 004#F303000000000000
(1435150354.362678) vcan0 004#F403000000000000
(1435150354.362945) vcan0 004#F503000000000000
(1435150354.363216) vcan0 004#F603000000000000
(1435150354.363485) vcan0 004#F703000000000000
(1435150354.363755) vcan0 004#F803000000000000
(1435150354.364023) vcan0 004#F903000000000000
(1435150354.364300) vcan0 004#FA03000000000000
(1435150354.364569) vcan0 004#FB03000000000000
(1435150354.364878) vcan0 004#FC03000000000000
(1435150354.365175) vcan0 004#FD03000000000000
(1435150354.365443) vcan0 004#FE03000000000000
(1435150354.365713) vcan0 004#FF03000000000000
(1435150354.365975) vcan0 004#0004000000000000
(1435150354.366238) vcan0 004#0104000000000000
(1435150354.366499) vcan0 004#0204000000000000
(1435150354.366761) vcan0 004#0304000000000000
(1435150354.367022) vcan0 004#0404000000000000
(1435150354.367329) vcan0 004#0504000000000000
(1435150354.367610) vcan0 004#0604000000000000
(1435150354.367883) vcan0 004#0704000000000000
(1435150354.368152) vcan0 004#0804000000000000
(1435150354.368412) vcan0 004#0904000000000000
(1435150354.368671) vcan0 004#0A04000000000000
(1435150354.368930) vcan0 004#0B04000000000000
(1435150354.369190) vcan0 004#0C04000000000000
(1435150354.369452) vcan0 004#0D04000000000000
(1435150354.369760) vcan0 004#0E04000000000000
(1435150354.370011) vcan0 004#0F04000000000000
(1435150354.370335) vcan0 004#1004000000000000
(1435150354.370652) vcan0 004#1104000000000000
(1435150354.370943) vcan0 004#1204000000000000
(1435150354.372156) vcan0 004#1304000000000000
(1435150354.372442) vcan0 004#1404000000000000
(1435150354.372742) vcan0 004#1504000000000000
(1435150354.373021) vcan0 004#1604000000000000
(1435150354.373298) vcan0 004#1704000000000000
(1435150354.373575) vcan0 004#1804000000000000
(1435150354.373864) vcan0 004#1904000000000000
(1435150354.374133) vcan0 004#1A04000000000000
(1435150354.374399) vcan0 004#1B04000000000000
(1435150354.374673) vcan0 004#1C04000000000000
(1435150354.374939) vcan0 004#1D04000000000000
(1435150354.375210) vcan0 004#1E04000000000000
(1435150354.375480) vcan0 004#1F04000000000000
(1435150354.375749) vcan0 004#2004000000000000
(1435150354.376019) vcan0 004#2104000000000000
(1435150354.376324) vcan0 004#2204000000000000
(1435150354.376603) vcan0 004#2304000000000000
(1435150354.376883) vcan0 004#2404000000000000
(1435150354.377173) vcan0 004#2504000000000000
(1435150354.377442) vcan0 004#2604000000000000
(1435150354.377711) vcan0 004#2704000000000000
(1435150354.377972) vcan0 004#2804000000000000
(1435150354.378233) vcan0 004#2904000000000000
(1435150354.378928) vcan0 004#2A04000000000000
(1435150354.379227) vcan0 004#2B04000000000000
(1435150354.379510) vcan0 004#2C04000000000000
(1435150354.379809) vcan0 004#2D04000000000000
(1435150354.380086) vcan0 004#2E04000000000000
(1435150354.380376) vcan0 004#2F04000000000000
(1435150354.380653) vcan0 004#3004000000000000
(1435150354.380929) vcan0 004#3104000000000000
(1435150354.381205) vcan0 004#3204000000000000
(1435150354.381481) vcan0 004#3304000000000000
(1435150354.381758) vcan0 004#3404000000000000
(1435150354.382013) vcan0 004#3504000000000000
(1435150354.382306) vcan0 004#3604000000000000
(1435150354.382602) vcan0 004#3704000000000000
(1435150354.382886) vcan0 004#3804000000000000
(1435150354.383165) vcan0 004#3904000000000000
(1435150354.383432) vcan0 004#3A04000000000000
(1435150354.383697) vcan0 004#3B04000000000000
(1435150354.383962) vcan0 004#3C04000000000000
(1435150354.384228) vcan0 004#3D04000000000000
(1435150354.384492) vcan0 004#3E04000000000000
(1435150354.384757) vcan0 004#3F04000000000000
(1435150354.385020) vcan0 004#4004000000000000
(1435150354.385285) vcan0 004#4104000000000000
(1435150354.385548) vcan0 004#4204000000000000
(1435150354.385843) vcan0 004#4304000000000000
(1435150354.386148) vcan0 004#4404000000000000
(1435150354.387899) vcan0 004#4504000000000000
(1435150354.388190) vcan0 004#4604000000000000
(1435150354.388463) vcan0 004#4704000000000000
(1435150354.388738) vcan0 004#4804000000000000
(1435150354.389008) vcan0 004#4904000000000000
(1435150354.389277) vcan0 004#4A04000000000000
(1435150354.389512) vcan0 004#4B04000000000000
(1435150354.389786) vcan0 004#4C04000000000000
(1435150354.390012) vcan0 004#4D04000000000000
(1435150354.390280) vcan0 004#4E04000000000000
(1435150354.390547) vcan0 004#4F04000000000000
(1435150354.390839) vcan0 004#5004000000000000
(1435150354.391099) vcan0 004#5104000000000000
(1435150354.391396) vcan0 004#5204000000000000
(1435150354.391625) vcan0 004#5304000000000000
(1435150354.391905) vcan0 004#5404000000000000
(1435150354.392176) vcan0 004#5504000000000000
(1435150354.392568) vcan0 004#5604000000000000
(1435150354.392869) vcan0 004#5704000000000000
(1435150354.393150) vcan0 004#5804000000000000
(1435150354.393428) vcan0 004#5904000000000000
(1435150354.393706) vcan0 004#5A04000000000000
(1435150354.393967) vcan0 004#5B04000000000000
(1435150354.394227) vcan0 004#5C04000000000000
(1435150354.394910) vcan0 004#5D04000000000000
(1435150354.395192) vcan0 004#5E04000000000000
(1435150354.395464) vcan0 004#5F04000000000000
(1435150354.395737) vcan0 004#6004000000000000
(1435150354.396009) vcan0 004#6104000000000000
(1435150354.396285) vcan0 004#6204000000000000
(1435150354.396561) vcan0 004#6304000000000000
(1435150354.396861) vcan0 004#6404000000000000
(1435150354.397154) vcan0 004#6504000000000000
(1435150354.397430) vcan0 004#6604000000000000
(1435150354.397707) vcan0 004#6704000000000000
(1435150354.397984) vcan0 004#6804000000000000
(1435150354.398263) vcan0 004#6904000000000000
(1435150354.398542) vcan0 004#6A04000000000000
(1435150354.398835) vcan0 004#6B04000000000000
(1435150354.399139) vcan0 004#6C04000000000000
(1435150354.399433) vcan0 004#6D04000000000000
(1435150354.399710) vcan0 004#6E04000000000000
(1435150354.399987) vcan0 004#6F04000000000000
(1435150354.400263) vcan0 004#7004000000000000
(1435150354.400538) vcan0 004#7104000000000000
(1435150354.400824) vcan0 004#7204000000000000
(1435150354.401099) vcan0 004#7304000000000000
(1435150354.401391) vcan0 004#7404000000000000
(1435150354.401670) vcan0 004#7504000000000000
(1435150354.401936) vcan0 004#7604000000000000
(1435150354.402202) vcan0 004#7704000000000000
(1435150354.402898) vcan0 004#7804000000000000
(1435150354.403175) vcan0 004#7904000000000000
(1435150354.403451) vcan0 004#7A04000000000000
(1435150354.403719) vcan0 004#7B04000000000000
(1435150354.403994) vcan0 004#7C04000000000000
(1435150354.404272) vcan0 004#7D04000000000000
(1435150354.404548) vcan0 004#7E04000000000000
(1435150354.404826) vcan0 004#7F04000000000000
(1435150354.405102) vcan0 004#8004000000000000
(1435150354.405397) vcan0 004#8104000000000000
(1435150354.405674) vcan0 004#8204000000000000
(1435150354.405951) vcan0 004#8304000000000000
(1435150354.406228) vcan0 004#8404000000000000
(1435150354.406504) vcan0 004#8504000000000000
(1435150354.406779) vcan0 004#8604000000000000
(1435150354.407047) vcan0 004#8704000000000000
(1435150354.407350) vcan0 004#8804000000000000
(1435150354.407630) vcan0 004#8904000000000000
(1435150354.407908) vcan0 004#8A04000000000000
(1435150354.408186) vcan0 004#8B04000000000000
(1435150354.408454) vcan0 004#8C04000000000000
(1435150354.408724) vcan0 004#8D04000000000000
(1435150354.408992) vcan0 004#8E04000000000000
(1435150354.409262) vcan0 004#8F04000000000000
(1435150354.409549) vcan0 004#9004000000000000
(1435150354.409843) vcan0 004#9104000000000000
(1435150354.410104) vcan0 004#9204000000000000
(1435150354.410414) vcan0 004#9304000000000000
(1435150354.411079) vcan0 004#9404000000000000
(1435150354.411388) vcan0 004#9504000000000000
(1435150354.411657) vcan0 004#9604000000000000
(1435150354.411922) vcan0 004#9704000000000000
(1435150354.412192) vcan0 004#9804000000000000
(1435150354.412458) vcan0 004#9904000000000000
(1435150354.412762) vcan0 004#9A04000000000000
(1435150354.413039) vcan0 004#9B04000000000000
(1435150354.413317) vcan0 004#9C04000000000000
(1435150354.413593) vcan0 004#9D04000000000000
(1435150354.413879) vcan0 004#9E04000000000000
(1435150354.414153) vcan0 004#9F04000000000000
(1435150354.414419) vcan0 004#A004000000000000
(1435150354.414689) vcan0 004#A104000000000000
(1435150354.414923) vcan0 004#A204000000000000
(1435150354.415169) vcan0 004#A304000000000000
(1435150354.415473) vcan0 004#A404000000000000
(1435150354.415701) vcan0 004#A504000000000000
(1435150354.415931) vcan0 004#A604000000000000
(1435150354.416171) vcan0 004#A704000000000000
(1435150354.416401) vcan0 004#A804000000000000
(1435150354.416651) vcan0 004#A904000000000000
(1435150354.416881) vcan0 004#AA04000000000000
(1435150354.417113) vcan0 004#AB04000000000000
(1435150354.417361) vcan0 004#AC04000000000000
(1435150354.418639) vcan0 004#AD04000000000000
(1435150354.418948) vcan0 004#AE04000000000000
(1435150354.419228) vcan0 004#AF04000000000000
(1435150354.419526) vcan0 004#B004000000000000
(1435150354.419798) vcan0 004#B104000000000000
(1435150354.420082) vcan0 004#B204000000000000
(1435150354.420362) vcan0 004#B304000000000000
(1435150354.420642) vcan0 004#B404000000000000
(1435150354.420919) vcan0 004#B504000000000000
(1435150354.421198) vcan0 004#B604000000000000
(1435150354.421475) vcan0 004#B704000000000000
(1435150354.421752) vcan0 004#B804000000000000
(1435150354.422013) vcan0 004#B904000000000000
(1435150354.422280) vcan0 004#BA04000000000000
(1435150354.422547) vcan0 004#BB04000000000000
(1435150354.422879) vcan0 004#BC04000000000000
(1435150354.423164) vcan0 004#BD04000000000000
(1435150354.423433) vcan0 004#BE04000000000000
(1435150354.423715) vcan0 004#BF04000000000000
(1435150354.423984) vcan0 004#C004000000000000
(1435150354.424253) vcan0 004#C104000000000000
(1435150354.424522) vcan0 004#C204000000000000
(1435150354.424791) vcan0 004#C304000000000000
(1435150354.425080) vcan0 004#C404000000000000
(1435150354.425389) vcan0 004#C504000000000000
(1435150354.425669) vcan0 004#C604000000000000
(1435150354.425930) vcan0 004#C704000000000000
(1435150354.426222) vcan0 004#C804000000000000
(1435150354.426988) vcan0 004#C904000000000000
(1435150354.427329) vcan0 004#CA04000000000000
(1435150354.427632) vcan0 004#CB04000000000000
(1435150354.427904) vcan0 004#CC04000000000000
(1435150354.428194) vcan0 004#CD04000000000000
(1435150354.428482) vcan0 004#CE04000000000000
(1435150354.428749) vcan0 004#CF04000000000000
(1435150354.429801) vcan0 004#D004000000000000
(1435150354.430013) vcan0 004#D104000000000000
(1435150354.430283) vcan0 004#D204000000000000
(1435150354.430552) vcan0 004#D304000000000000
(1435150354.430844) vcan0 004#D404000000000000
(1435150354.431103) vcan0 004#D504000000000000
(1435150354.431395) vcan0 004#D604000000000000
(1435150354.431666) vcan0 004#D704000000000000
(1435150354.431925) vcan0 004#D804000000000000
(1435150354.432199) vcan0 004#D904000000000000
(1435150354.432459) vcan0 004#DA04000000000000
(1435150354.432718) vcan0 004#DB04000000000000
(1435150354.432987) vcan0 004#DC04000000000000
(1435150354.433256) vcan0 004#DD04000000000000
(1435150354.433524) vcan0 004#DE04000000000000
(1435150354.433793) vcan0 004#DF04000000000000
(1435150354.434010) vcan0 004#E004000000000000
(1435150354.434269) vcan0 004#E104000000000000
(1435150354.434570) vcan0 004#E204000000000000
(1435150354.434866) vcan0 004#E304000000000000
(1435150354.435181) vcan0 004#E404000000000000
(1435150354.435446) vcan0 004#E504000000000000
(1435150354.435715) vcan0 004#E604000000000000
(1435150354.435983) vcan0 004#E704000000000000
(1435150354.436252) vcan0 004#E804000000000000
(1435150354.436520) vcan0 004#E904000000000000
(1435150354.436798) vcan0 004#EA04000000000000
(1435150354.437065) vcan0 004#EB04000000000000
(1435150354.437372) vcan0 004#EC04000000000000
(1435150354.437653) vcan0 004#ED04000000000000
(1435150354.437912) vcan0 004#EE04000000000000
(1435150354.438172) vcan0 004#EF04000000000000
(1435150354.438547) vcan0 004#F004000000000000
(1435150354.438837) vcan0 004#F104000000000000
(1435150354.439104) vcan0 004#F204000000000000
(1435150354.439383) vcan0 004#F304000000000000
(1435150354.439680) vcan0 004#F404000000000000
(1435150354.439935) vcan0 004#F504000000000000
(1435150354.440194) vcan0 004#F604000000000000
(1435150354.440453) vcan0 004#F704000000000000
(1435150354.440712) vcan0 004#F804000000000000
(1435150354.440970) vcan0 004#F904000000000000
(1435150354.441229) vcan0 004#FA04000000000000
(1435150354.441487) vcan0 004#FB04000000000000
(1435150354.441771) vcan0 004#FC04000000000000
(1435150354.442010) vcan0 004#FD04000000000000
(1435150354.442362) vcan0 004#FE04000000000000
(1435150354.442863) vcan0 004#FF04000000000000
(1435150354.443095) vcan0 004#0005000000000000
(1435150354.443423) vcan0 004#0105000000000000
(1435150354.443725) vcan0 004#0205000000000000
(1435150354.444024) vcan0 004#0305000000000000
(1435150354.445276) vcan0 004#0405000000000000
(1435150354.445556) vcan0 004#0505000000000000
(1435150354.445882) vcan0 004#0605000000000000
(1435150354.446157) vcan0 004#0705000000000000
(1435150354.446435) vcan0 004#0805000000000000
(1435150354.446711) vcan0 004#0905000000000000
(1435150354.446986) vcan0 004#0A05000000000000
(1435150354.447255) vcan0 004#0B05000000000000
(1435150354.447524) vcan0 004#0C05000000000000
(1435150354.447802) vcan0 004#0D05000000000000
(1435150354.448071) vcan0 004#0E05000000000000
(1435150354.448378) vcan0 004#0F05000000000000
(1435150354.448657) vcan0 004#1005000000000000
(1435150354.448928) vcan0 004#1105000000000000
(1435150354.449197) vcan0 004#1205000000000000
(1435150354.449469) vcan0 004#1305000000000000
(1435150354.449746) vcan0 004#1405000000000000
(1435150354.450013) vcan0 004#1505000000000000
(1435150354.450284) vcan0 004#1605000000000000
(1435150354.450589) vcan0 004#1705000000000000
(1435150354.450871) vcan0 004#1805000000000000
(1435150354.451151) vcan0 004#1905000000000000
(1435150354.451419) vcan0 004#1A05000000000000
(1435150354.451707) vcan0 004#1B05000000000000
(1435150354.451973) vcan0 004#1C05000000000000
(1435150354.452240) vcan0 004#1D05000000000000
(1435150354.452506) vcan0 004#1E05000000000000
(1435150354.452772) vcan0 004#1F05000000000000
(1435150354.453045) vcan0 004#2005000000000000
(1435150354.453319) vcan0 004#2105000000000000
(1435150354.453589) vcan0 004#2205000000000000
(1435150354.453885) vcan0 004#2305000000000000
(1435150354.454161) vcan0 004#2405000000000000
(1435150354.454421) vcan0 004#2505000000000000
(1435150354.454704) vcan0 004#2605000000000000
(1435150354.454973) vcan0 004#2705000000000000
(1435150354.455271) vcan0 004#2805000000000000
(1435150354.455535) vcan0 004#2905000000000000
(1435150354.455804) vcan0 004#2A05000000000000
(1435150354.456073) vcan0 004#2B05000000000000
(1435150354.456376) vcan0 004#2C05000000000000
(1435150354.456657) vcan0 004#2D05000000000000
(1435150354.456925) vcan0 004#2E05000000000000
(1435150354.457194) vcan0 004#2F05000000000000
(1435150354.457463) vcan0 004#3005000000000000
(1435150354.457731) vcan0 004#3105000000000000
(1435150354.458000) vcan0 004#3205000000000000
(1435150354.458275) vcan0 004#3305000000000000
(1435150354.458842) vcan0 004#3405000000000000
(1435150354.459121) vcan0 004#3505000000000000
(1435150354.459404) vcan0 004#3605000000000000
(1435150354.459682) vcan0 004#3705000000000000
(1435150354.459959) vcan0 004#3805000000000000
(1435150354.460235) vcan0 004#3905000000000000
(1435150354.460511) vcan0 004#3A05000000000000
(1435150354.460787) vcan0 004#3B05000000000000
(1435150354.461063) vcan0 004#3C05000000000000
(1435150354.461367) vcan0 004#3D05000000000000
(1435150354.461644) vcan0 004#3E05000000000000
(1435150354.461911) vcan0 004#3F05000000000000
(1435150354.462177) vcan0 004#4005000000000000
(1435150354.462443) vcan0 004#4105000000000000
(1435150354.462709) vcan0 004#4205000000000000
(1435150354.462975) vcan0 004#4305000000000000
(1435150354.463268) vcan0 004#4405000000000000
(1435150354.463538) vcan0 004#4505000000000000
(1435150354.463816) vcan0 004#4605000000000000
(1435150354.464084) vcan0 004#4705000000000000
(1435150354.464391) vcan0 004#4805000000000000
(1435150354.464674) vcan0 004#4905000000000000
(1435150354.464942) vcan0 004#4A05000000000000
(1435150354.465211) vcan0 004#4B05000000000000
(1435150354.465479) vcan0 004#4C05000000000000
(1435150354.465766) vcan0 004#4D05000000000000
(1435150354.466011) vcan0 004#4E05000000000000
(1435150354.466279) vcan0 004#4F05000000000000
(1435150354.466539) vcan0 004#5005000000000000
(1435150354.466823) vcan0 004#5105000000000000
(1435150354.467082) vcan0 004#5205000000000000
(1435150354.467361) vcan0 004#5305000000000000
(1435150354.467663) vcan0 004#5405000000000000
(1435150354.467928) vcan0 004#5505000000000000
(1435150354.468198) vcan0 004#5605000000000000
(1435150354.468465) vcan0 004#5705000000000000
(1435150354.468734) vcan0 004#5805000000000000
(1435150354.469002) vcan0 004#5905000000000000
(1435150354.469284) vcan0 004#5A05000000000000
(1435150354.469560) vcan0 004#5B05000000000000
(1435150354.469849) vcan0 004#5C05000000000000
(1435150354.470145) vcan0 004#5D05000000000000
(1435150354.470400) vcan0 004#5E05000000000000
(1435150354.470659) vcan0 004#5F05000000000000
(1435150354.470920) vcan0 004#6005000000000000
(1435150354.471159) vcan0 004#6105000000000000
(1435150354.471388) vcan0 004#6205000000000000
(1435150354.471631) vcan0 004#6305000000000000
(1435150354.471869) vcan0 004#6405000000000000
(1435150354.472114) vcan0 004#6505000000000000
(1435150354.472353) vcan0 004#6605000000000000
(1435150354.472582) vcan0 004#6705000000000000
(1435150354.472845) vcan0 004#6805000000000000
(1435150354.473074) vcan0 004#6905000000000000
(1435150354.473366) vcan0 004#6A05000000000000
(1435150354.473615) vcan0 004#6B05000000000000
(1435150354.473854) vcan0 004#6C05000000000000
(1435150354.474083) vcan0 004#6D05000000000000
(1435150354.474360) vcan0 004#6E05000000000000
(1435150354.474592) vcan0 004#6F05000000000000
(1435150354.475888) vcan0 004#7005000000000000
(1435150354.476179) vcan0 004#7105000000000000
(1435150354.476470) vcan0 004#7205000000000000
(1435150354.476782) vcan0 004#7305000000000000
(1435150354.477053) vcan0 004#7405000000000000
(1435150354.477357) vcan0 004#7505000000000000
(1435150354.477648) vcan0 004#7605000000000000
(1435150354.477920) vcan0 004#7705000000000000
(1435150354.478184) vcan0 004#7805000000000000
(1435150354.478444) vcan0 004#7905000000000000
(1435150354.478704) vcan0 004#7A05000000000000
(1435150354.478963) vcan0 004#7B05000000000000
(1435150354.479223) vcan0 004#7C05000000000000
(1435150354.479498) vcan0 004#7D05000000000000
(1435150354.479727) vcan0 004#7E05000000000000
(1435150354.480004) vcan0 004#7F05000000000000
(1435150354.480281) vcan0 004#8005000000000000
(1435150354.480556) vcan0 004#8105000000000000
(1435150354.480848) vcan0 004#8205000000000000
(1435150354.481124) vcan0 004#8305000000000000
(1435150354.481415) vcan0 004#8405000000000000
(1435150354.481691) vcan0 004#8505000000000000
(1435150354.481957) vcan0 004#8605000000000000
(1435150354.482223) vcan0 004#8705000000000000
(1435150354.482907) vcan0 004#8805000000000000
(1435150354.483187) vcan0 004#8905000000000000
(1435150354.483483) vcan0 004#8A05000000000000
(1435150354.483753) vcan0 004#8B05000000000000
(1435150354.484020) vcan0 004#8C05000000000000
(1435150354.484287) vcan0 004#8D05000000000000
(1435150354.484553) vcan0 004#8E05000000000000
(1435150354.484863) vcan0 004#8F05000000000000
(1435150354.485138) vcan0 004#9005000000000000
(1435150354.485411) vcan0 004#9105000000000000
(1435150354.485685) vcan0 004#9205000000000000
(1435150354.485940) vcan0 004#9305000000000000
(1435150354.487085) vcan0 004#9405000000000000
(1435150354.487386) vcan0 004#9505000000000000
(1435150354.487666) vcan0 004#9605000000000000
(1435150354.487922) vcan0 004#9705000000000000
(1435150354.488188) vcan0 004#9805000000000000
(1435150354.488444) vcan0 004#9905000000000000
(1435150354.488727) vcan0 004#9A05000000000000
(1435150354.488979) vcan0 004#9B05000000000000
(1435150354.489235) vcan0 004#9C05000000000000
(1435150354.489504) vcan0 004#9D05000000000000
(1435150354.489800) vcan0 004#9E05000000000000
(1435150354.490008) vcan0 004#9F05000000000000
(1435150354.490265) vcan0 004#A005000000000000
(1435150354.490521) vcan0 004#A105000000000000
(1435150354.490777) vcan0 004#A205000000000000
(1435150354.491032) vcan0 004#A305000000000000
(1435150354.491288) vcan0 004#A405000000000000
(1435150354.491544) vcan0 004#A505000000000000
(1435150354.491800) vcan0 004#A605000000000000
(1435150354.492053) vcan0 004#A705000000000000
(1435150354.492311) vcan0 004#A805000000000000
(1435150354.492569) vcan0 004#A905000000000000
(1435150354.492875) vcan0 004#AA05000000000000
(1435150354.493131) vcan0 004#AB05000000000000
(1435150354.493407) vcan0 004#AC05000000000000
(1435150354.493680) vcan0 004#AD05000000000000
(1435150354.493946) vcan0 004#AE05000000000000
(1435150354.494211) vcan0 004#AF05000000000000
(1435150354.494468) vcan0 004#B005000000000000
(1435150354.494731) vcan0 004#B105000000000000
(1435150354.494987) vcan0 004#B205000000000000
(1435150354.495243) vcan0 004#B305000000000000
(1435150354.495498) vcan0 004#B405000000000000
(1435150354.495728) vcan0 004#B505000000000000
(1435150354.496006) vcan0 004#B605000000000000
(1435150354.496266) vcan0 004#B705000000000000
(1435150354.496530) vcan0 004#B805000000000000
(1435150354.496793) vcan0 004#B905000000000000
(1435150354.497065) vcan0 004#BA05000000000000
(1435150354.497362) vcan0 004#BB05000000000000
(1435150354.497627) vcan0 004#BC05000000000000
(1435150354.497901) vcan0 004#BD05000000000000
(1435150354.498184) vcan0 004#BE05000000000000
(1435150354.498455) vcan0 004#BF05000000000000
(1435150354.498737) vcan0 004#C005000000000000
(1435150354.499010) vcan0 004#C105000000000000
(1435150354.499298) vcan0 004#C205000000000000
(1435150354.499600) vcan0 004#C305000000000000
(1435150354.499912) vcan0 004#C405000000000000
(1435150354.500194) vcan0 004#C505000000000000
(1435150354.500466) vcan0 004#C605000000000000
(1435150354.500749) vcan0 004#C705000000000000
(1435150354.501021) vcan0 004#C805000000000000
(1435150354.502242) vcan0 004#C905000000000000
(1435150354.502507) vcan0 004#CA05000000000000
(1435150354.502766) vcan0 004#CB05000000000000
(1435150354.503024) vcan0 004#CC05000000000000
(1435150354.503280) vcan0 004#CD05000000000000
(1435150354.503536) vcan0 004#CE05000000000000
(1435150354.503788) vcan0 004#CF05000000000000
(1435150354.504076) vcan0 004#D005000000000000
(1435150354.504357) vcan0 004#D105000000000000
(1435150354.504620) vcan0 004#D205000000000000
(1435150354.504933) vcan0 004#D305000000000000
(1435150354.505206) vcan0 004#D405000000000000
(1435150354.505469) vcan0 004#D505000000000000
(1435150354.505733) vcan0 004#D605000000000000
(1435150354.505997) vcan0 004#D705000000000000
(1435150354.506261) vcan0 004#D805000000000000
(1435150354.506524) vcan0 004#D905000000000000
(1435150354.506788) vcan0 004#DA05000000000000
(1435150354.507051) vcan0 004#DB05000000000000
(1435150354.507340) vcan0 004#DC05000000000000
(1435150354.507603) vcan0 004#DD05000000000000
(1435150354.507898) vcan0 004#DE05000000000000
(1435150354.508172) vcan0 004#DF05000000000000
(1435150354.508442) vcan0 004#E005000000000000
(1435150354.508712) vcan0 004#E105000000000000
(1435150354.508982) vcan0 004#E205000000000000
(1435150354.509257) vcan0 004#E305000000000000
(1435150354.509538) vcan0 004#E405000000000000
(1435150354.509806) vcan0 004#E505000000000000
(1435150354.510007) vcan0 004#E605000000000000
(1435150354.510262) vcan0 004#E705000000000000
(1435150354.510517) vcan0 004#E805000000000000
(1435150354.510772) vcan0 004#E905000000000000
(1435150354.511026) vcan0 004#EA05000000000000
(1435150354.511284) vcan0 004#EB05000000000000
(1435150354.511540) vcan0 004#EC05000000000000
(1435150354.511795) vcan0 004#ED05000000000000
(1435150354.512050) vcan0 004#EE05000000000000
(1435150354.512319) vcan0 004#EF05000000000000
(1435150354.512593) vcan0 004#F005000000000000
(1435150354.512897) vcan0 004#F105000000000000
(1435150354.513184) vcan0 004#F205000000000000
(1435150354.513444) vcan0 004#F305000000000000
(1435150354.513712) vcan0 004#F405000000000000
(1435150354.513966) vcan0 004#F505000000000000
(1435150354.514227) vcan0 004#F605000000000000
(1435150354.515003) vcan0 004#F705000000000000
(1435150354.515283) vcan0 004#F805000000000000
(1435150354.515551) vcan0 004#F905000000000000
(1435150354.515844) vcan0 004#FA05000000000000
(1435150354.516138) vcan0 004#FB05000000000000
(1435150354.516410) vcan0 004#FC05000000000000
(1435150354.516681) vcan0 004#FD05000000000000
(1435150354.517089) vcan0 004#FE05000000000000
(1435150354.517398) vcan0 004#FF05000000000000
(1435150354.517700) vcan0 004#0006000000000000
(1435150354.517970) vcan0 004#0106000000000000
(1435150354.518234) vcan0 004#0206000000000000
(1435150354.518496) vcan0 004#0306000000000000
(1435150354.518759) vcan0 004#0406000000000000
(1435150354.519021) vcan0 004#0506000000000000
(1435150354.519282) vcan0 004#0606000000000000
(1435150354.519559) vcan0 004#0706000000000000
(1435150354.519845) vcan0 004#0806000000000000
(1435150354.520145) vcan0 004#0906000000000000
(1435150354.520428) vcan0 004#0A06000000000000
(1435150354.520697) vcan0 004#0B06000000000000
(1435150354.521028) vcan0 004#0C06000000000000
(1435150354.521292) vcan0 004#0D06000000000000
(1435150354.521562) vcan0 004#0E06000000000000
(1435150354.521832) vcan0 004#0F06000000000000
(1435150354.522098) vcan0 004#1006000000000000
(1435150354.522382) vcan0 004#1106000000000000
(1435150354.522648) vcan0 004#1206000000000000
(1435150354.522923) vcan0 004#1306000000000000
(1435150354.523189) vcan0 004#1406000000000000
(1435150354.523455) vcan0 004#1506000000000000
(1435150354.523721) vcan0 004#1606000000000000
(1435150354.523949) vcan0 004#1706000000000000
(1435150354.524225) vcan0 004#1806000000000000
(1435150354.524501) vcan0 004#1906000000000000
(1435150354.524779) vcan0 004#1A06000000000000
(1435150354.525055) vcan0 004#1B06000000000000
(1435150354.525344) vcan0 004#1C06000000000000
(1435150354.525613) vcan0 004#1D06000000000000
(1435150354.525881) vcan0 004#1E06000000000000
(1435150354.526157) vcan0 004#1F06000000000000
(1435150354.526439) vcan0 004#2006000000000000
(1435150354.526698) vcan0 004#2106000000000000
(1435150354.526957) vcan0 004#2206000000000000
(1435150354.527216) vcan0 004#2306000000000000
(1435150354.527475) vcan0 004#2406000000000000
(1435150354.527736) vcan0 004#2506000000000000
(1435150354.527972) vcan0 004#2606000000000000
(1435150354.528202) vcan0 004#2706000000000000
(1435150354.528431) vcan0 004#2806000000000000
(1435150354.528669) vcan0 004#2906000000000000
(1435150354.528899) vcan0 004#2A06000000000000
(1435150354.529147) vcan0 004#2B06000000000000
(1435150354.529379) vcan0 004#2C06000000000000
(1435150354.529616) vcan0 004#2D06000000000000
(1435150354.529841) vcan0 004#2E06000000000000
(1435150354.530010) vcan0 004#2F06000000000000
(1435150354.530239) vcan0 004#3006000000000000
(1435150354.530925) vcan0 004#3106000000000000
(1435150354.531175) vcan0 004#3206000000000000
(1435150354.531412) vcan0 004#3306000000000000
(1435150354.531655) vcan0 004#3406000000000000
(1435150354.533151) vcan0 004#3506000000000000
(1435150354.533452) vcan0 004#3606000000000000
(1435150354.533732) vcan0 004#3706000000000000
(1435150354.534024) vcan0 004#3806000000000000
(1435150354.534308) vcan0 004#3906000000000000
(1435150354.534569) vcan0 004#3A06000000000000
(1435150354.534881) vcan0 004#3B06000000000000
(1435150354.535153) vcan0 004#3C06000000000000
(1435150354.535412) vcan0 004#3D06000000000000
(1435150354.535683) vcan0 004#3E06000000000000
(1435150354.535962) vcan0 004#3F06000000000000
(1435150354.536228) vcan0 004#4006000000000000
(1435150354.536497) vcan0 004#4106000000000000
(1435150354.536767) vcan0 004#4206000000000000
(1435150354.537035) vcan0 004#4306000000000000
(1435150354.537305) vcan0 004#4406000000000000
(1435150354.537574) vcan0 004#4506000000000000
(1435150354.537874) vcan0 004#4606000000000000
(1435150354.538152) vcan0 004#4706000000000000
(1435150354.538440) vcan0 004#4806000000000000
(1435150354.538701) vcan0 004#4906000000000000
(1435150354.538959) vcan0 004#4A06000000000000
(1435150354.539222) vcan0 004#4B06000000000000
(1435150354.539487) vcan0 004#4C06000000000000
(1435150354.539754) vcan0 004#4D06000000000000
(1435150354.540011) vcan0 004#4E06000000000000
(1435150354.540268) vcan0 004#4F06000000000000
(1435150354.540527) vcan0 004#5006000000000000
(1435150354.540787) vcan0 004#5106000000000000
(1435150354.541046) vcan0 004#5206000000000000
(1435150354.541306) vcan0 004#5306000000000000
(1435150354.541565) vcan0 004#5406000000000000
(1435150354.541859) vcan0 004#5506000000000000
(1435150354.542111) vcan0 004#5606000000000000
(1435150354.542362) vcan0 004#5706000000000000
(1435150354.542624) vcan0 004#5806000000000000
(1435150354.542911) vcan0 004#5906000000000000
(1435150354.543182) vcan0 004#5A06000000000000
(1435150354.544141) vcan0 004#5B06000000000000
(1435150354.544425) vcan0 004#5C06000000000000
(1435150354.544747) vcan0 004#5D06000000000000
(1435150354.545018) vcan0 004#5E06000000000000
(1435150354.545288) vcan0 004#5F06000000000000
(1435150354.545558) vcan0 004#6006000000000000
(1435150354.545809) vcan0 004#6106000000000000
(1435150354.546010) vcan0 004#6206000000000000
(1435150354.546227) vcan0 004#6306000000000000
(1435150354.546492) vcan0 004#6406000000000000
(1435150354.546762) vcan0 004#6506000000000000
(1435150354.547031) vcan0 004#6606000000000000
(1435150354.547300) vcan0 004#6706000000000000
(1435150354.547570) vcan0 004#6806000000000000
(1435150354.547871) vcan0 004#6906000000000000
(1435150354.548152) vcan0 004#6A06000000000000
(1435150354.548431) vcan0 004#6B06000000000000
(1435150354.548710) vcan0 004#6C06000000000000
(1435150354.548979) vcan0 004#6D06000000000000
(1435150354.549248) vcan0 004#6E06000000000000
(1435150354.549536) vcan0 004#6F06000000000000
(1435150354.549812) vcan0 004#7006000000000000
(1435150354.550010) vcan0 004#7106000000000000
(1435150354.550270) vcan0 004#7206000000000000
(1435150354.550530) vcan0 004#7306000000000000
(1435150354.550751) vcan0 004#7406000000000000
(1435150354.551015) vcan0 004#7506000000000000
(1435150354.551288) vcan0 004#7606000000000000
(1435150354.551593) vcan0 004#7706000000000000
(1435150354.551912) vcan0 004#7806000000000000
(1435150354.552189) vcan0 004#7906000000000000
(1435150354.552465) vcan0 004#7A06000000000000
(1435150354.552742) vcan0 004#7B06000000000000
(1435150354.553018) vcan0 004#7C06000000000000
(1435150354.553294) vcan0 004#7D06000000000000
(1435150354.553570) vcan0 004#7E06000000000000
(1435150354.553852) vcan0 004#7F06000000000000
(1435150354.554118) vcan0 004#8006000000000000
(1435150354.554400) vcan0 004#8106000000000000
(1435150354.554680) vcan0 004#8206000000000000
(1435150354.554946) vcan0 004#8306000000000000
(1435150354.555222) vcan0 004#8406000000000000
(1435150354.555481) vcan0 004#8506000000000000
(1435150354.555742) vcan0 004#8606000000000000
(1435150354.556036) vcan0 004#8706000000000000
(1435150354.556301) vcan0 004#8806000000000000
(1435150354.556569) vcan0 004#8906000000000000
(1435150354.556871) vcan0 004#8A06000000000000
(1435150354.557172) vcan0 004#8B06000000000000
(1435150354.557440) vcan0 004#8C06000000000000
(1435150354.557735) vcan0 004#8D06000000000000
(1435150354.558006) vcan0 004#8E06000000000000
(1435150354.558300) vcan0 004#8F06000000000000
(1435150354.559570) vcan0 004#9006000000000000
(1435150354.559883) vcan0 004#9106000000000000
(1435150354.560243) vcan0 004#9206000000000000
(1435150354.560509) vcan0 004#9306000000000000
(1435150354.560771) vcan0 004#9406000000000000
(1435150354.561031) vcan0 004#9506000000000000
(1435150354.561293) vcan0 004#9606000000000000
(1435150354.561552) vcan0 004#9706000000000000
(1435150354.561812) vcan0 004#9806000000000000
(1435150354.562061) vcan0 004#9906000000000000
(1435150354.562322) vcan0 004#9A06000000000000
(1435150354.562582) vcan0 004#9B06000000000000
(1435150354.562877) vcan0 004#9C06000000000000
(1435150354.563136) vcan0 004#9D06000000000000
(1435150354.563428) vcan0 004#9E06000000000000
(1435150354.563698) vcan0 004#9F06000000000000
(1435150354.563957) vcan0 004#A006000000000000
(1435150354.564216) vcan0 004#A106000000000000
(1435150354.564482) vcan0 004#A206000000000000
(1435150354.564753) vcan0 004#A306000000000000
(1435150354.565021) vcan0 004#A406000000000000
(1435150354.565290) vcan0 004#A506000000000000
(1435150354.565558) vcan0 004#A606000000000000
(1435150354.565827) vcan0 004#A706000000000000
(1435150354.566081) vcan0 004#A806000000000000
(1435150354.566374) vcan0 004#A906000000000000
(1435150354.566654) vcan0 004#AA06000000000000
(1435150354.566912) vcan0 004#AB06000000000000
(1435150354.567173) vcan0 004#AC06000000000000
(1435150354.567431) vcan0 004#AD06000000000000
(1435150354.567833) vcan0 004#AE06000000000000
(1435150354.568098) vcan0 004#AF06000000000000
(1435150354.568398) vcan0 004#B006000000000000
(1435150354.568677) vcan0 004#B106000000000000
(1435150354.568945) vcan0 004#B206000000000000
(1435150354.569213) vcan0 004#B306000000000000
(1435150354.569496) vcan0 004#B406000000000000
(1435150354.569772) vcan0 004#B506000000000000
(1435150354.570010) vcan0 004#B606000000000000
(1435150354.570270) vcan0 004#B706000000000000
(1435150354.570537) vcan0 004#B806000000000000
(1435150354.570816) vcan0 004#B906000000000000
(1435150354.571084) vcan0 004#BA06000000000000
(1435150354.571398) vcan0 004#BB06000000000000
(1435150354.571677) vcan0 004#BC06000000000000
(1435150354.571945) vcan0 004#BD06000000000000
(1435150354.572224) vcan0 004#BE06000000000000
(1435150354.572492) vcan0 004#BF06000000000000
(1435150354.572761) vcan0 004#C006000000000000
(1435150354.573029) vcan0 004#C106000000000000
(1435150354.573297) vcan0 004#C206000000000000
(1435150354.573565) vcan0 004#C306000000000000
(1435150354.573858) vcan0 004#C406000000000000
(1435150354.574117) vcan0 004#C506000000000000
(1435150354.574425) vcan0 004#C606000000000000
(1435150354.574686) vcan0 004#C706000000000000
(1435150354.574945) vcan0 004#C806000000000000
(1435150354.575209) vcan0 004#C906000000000000
(1435150354.575469) vcan0 004#CA06000000000000
(1435150354.575728) vcan0 004#CB06000000000000
(1435150354.575987) vcan0 004#CC06000000000000
(1435150354.576265) vcan0 004#CD06000000000000
(1435150354.576554) vcan0 004#CE06000000000000
(1435150354.576858) vcan0 004#CF06000000000000
(1435150354.577163) vcan0 004#D006000000000000
(1435150354.577431) vcan0 004#D106000000000000
(1435150354.577700) vcan0 004#D206000000000000
(1435150354.577966) vcan0 004#D306000000000000
(1435150354.578227) vcan0 004#D406000000000000
(1435150354.578486) vcan0 004#D506000000000000
(1435150354.578746) vcan0 004#D606000000000000
(1435150354.579005) vcan0 004#D706000000000000
(1435150354.579265) vcan0 004#D806000000000000
(1435150354.579541) vcan0 004#D906000000000000
(1435150354.579825) vcan0 004#DA06000000000000
(1435150354.580091) vcan0 004#DB06000000000000
(1435150354.580394) vcan0 004#DC06000000000000
(1435150354.580673) vcan0 004#DD06000000000000
(1435150354.580940) vcan0 004#DE06000000000000
(1435150354.581208) vcan0 004#DF06000000000000
(1435150354.581475) vcan0 004#E006000000000000
(1435150354.581743) vcan0 004#E106000000000000
(1435150354.582002) vcan0 004#E206000000000000
(1435150354.582261) vcan0 004#E306000000000000
(1435150354.582519) vcan0 004#E406000000000000
(1435150354.582778) vcan0 004#E506000000000000
(1435150354.583038) vcan0 004#E606000000000000
(1435150354.583298) vcan0 004#E706000000000000
(1435150354.583557) vcan0 004#E806000000000000
(1435150354.583850) vcan0 004#E906000000000000
(1435150354.584109) vcan0 004#EA06000000000000
(1435150354.584399) vcan0 004#EB06000000000000
(1435150354.584679) vcan0 004#EC06000000000000
(1435150354.584919) vcan0 004#ED06000000000000
(1435150354.585184) vcan0 004#EE06000000000000
(1435150354.585423) vcan0 004#EF06000000000000
(1435150354.585670) vcan0 004#F006000000000000
(1435150354.585900) vcan0 004#F106000000000000
(1435150354.586140) vcan0 004#F206000000000000
(1435150354.586378) vcan0 004#F306000000000000
(1435150354.586608) vcan0 004#F406000000000000
(1435150354.586857) vcan0 004#F506000000000000
(1435150354.587086) vcan0 004#F606000000000000
(1435150354.587350) vcan0 004#F706000000000000
(1435150354.587579) vcan0 004#F806000000000000
(1435150354.587843) vcan0 004#F906000000000000
(1435150354.588072) vcan0 004#FA06000000000000
(1435150354.588311) vcan0 004#FB06000000000000
(1435150354.588540) vcan0 004#FC06000000000000
(1435150354.588770) vcan0 004#FD06000000000000
(1435150354.589068) vcan0 004#FE06000000000000
(1435150354.589306) vcan0 004#FF06000000000000
(1435150354.590671) vcan0 004#0007000000000000
(1435150354.590959) vcan0 004#0107000000000000
(1435150354.591237) vcan0 004#0207000000000000
(1435150354.591510) vcan0 004#0307000000000000
(1435150354.591782) vcan0 004#0407000000000000
(1435150354.592065) vcan0 004#0507000000000000
(1435150354.592368) vcan0 004#0607000000000000
(1435150354.592648) vcan0 004#0707000000000000
(1435150354.592927) vcan0 004#0807000000000000
(1435150354.593197) vcan0 004#0907000000000000
(1435150354.593466) vcan0 004#0A07000000000000
(1435150354.593735) vcan0 004#0B07000000000000
(1435150354.593995) vcan0 004#0C07000000000000
(1435150354.594255) vcan0 004#0D07000000000000
(1435150354.594516) vcan0 004#0E07000000000000
(1435150354.594774) vcan0 004#0F07000000000000
(1435150354.595034) vcan0 004#1007000000000000
(1435150354.595295) vcan0 004#1107000000000000
(1435150354.595587) vcan0 004#1207000000000000
(1435150354.595871) vcan0 004#1307000000000000
(1435150354.596142) vcan0 004#1407000000000000
(1435150354.596418) vcan0 004#1507000000000000
(1435150354.596697) vcan0 004#1607000000000000
(1435150354.596966) vcan0 004#1707000000000000
(1435150354.597236) vcan0 004#1807000000000000
(1435150354.597504) vcan0 004#1907000000000000
(1435150354.597774) vcan0 004#1A07000000000000
(1435150354.598011) vcan0 004#1B07000000000000
(1435150354.598311) vcan0 004#1C07000000000000
(1435150354.598599) vcan0 004#1D07000000000000
(1435150354.598913) vcan0 004#1E07000000000000
(1435150354.599202) vcan0 004#1F07000000000000
(1435150354.599505) vcan0 004#2007000000000000
(1435150354.599816) vcan0 004#2107000000000000
(1435150354.600106) vcan0 004#2207000000000000
(1435150354.600425) vcan0 004#2307000000000000
(1435150354.600714) vcan0 004#2407000000000000
(1435150354.601877) vcan0 004#2507000000000000
(1435150354.602179) vcan0 004#2607000000000000
(1435150354.602441) vcan0 004#2707000000000000
(1435150354.602703) vcan0 004#2807000000000000
(1435150354.602963) vcan0 004#2907000000000000
(1435150354.603226) vcan0 004#2A07000000000000
(1435150354.603494) vcan0 004#2B07000000000000
(1435150354.603756) vcan0 004#2C07000000000000
(1435150354.604015) vcan0 004#2D07000000000000
(1435150354.604275) vcan0 004#2E07000000000000
(1435150354.604532) vcan0 004#2F07000000000000
(1435150354.604767) vcan0 004#3007000000000000
(1435150354.605036) vcan0 004#3107000000000000
(1435150354.605306) vcan0 004#3207000000000000
(1435150354.605575) vcan0 004#3307000000000000
(1435150354.605862) vcan0 004#3407000000000000
(1435150354.606155) vcan0 004#3507000000000000
(1435150354.606424) vcan0 004#3607000000000000
(1435150354.606693) vcan0 004#3707000000000000
(1435150354.606961) vcan0 004#3807000000000000
(1435150354.607230) vcan0 004#3907000000000000
(1435150354.607499) vcan0 004#3A07000000000000
(1435150354.607767) vcan0 004#3B07000000000000
(1435150354.608035) vcan0 004#3C07000000000000
(1435150354.608304) vcan0 004#3D07000000000000
(1435150354.608572) vcan0 004#3E07000000000000
(1435150354.608872) vcan0 004#3F07000000000000
(1435150354.609159) vcan0 004#4007000000000000
(1435150354.609431) vcan0 004#4107000000000000
(1435150354.609709) vcan0 004#4207000000000000
(1435150354.609973) vcan0 004#4307000000000000
(1435150354.610261) vcan0 004#4407000000000000
(1435150354.610539) vcan0 004#4507000000000000
(1435150354.610860) vcan0 004#4607000000000000
(1435150354.611168) vcan0 004#4707000000000000
(1435150354.611446) vcan0 004#4807000000000000
(1435150354.611735) vcan0 004#4907000000000000
(1435150354.612022) vcan0 004#4A07000000000000
(1435150354.612292) vcan0 004#4B07000000000000
(1435150354.612570) vcan0 004#4C07000000000000
(1435150354.612877) vcan0 004#4D07000000000000
(1435150354.613183) vcan0 004#4E07000000000000
(1435150354.614603) vcan0 004#4F07000000000000
(1435150354.614877) vcan0 004#5007000000000000
(1435150354.615152) vcan0 004#5107000000000000
(1435150354.620378) vcan0 004#5207000000000000
(1435150354.621068) vcan0 004#5307000000000000
(1435150354.621490) vcan0 004#5407000000000000
(1435150354.621861) vcan0 004#5507000000000000
(1435150354.622254) vcan0 004#5607000000000000
(1435150354.625473) vcan0 004#5707000000000000
(1435150354.626075) vcan0 004#5807000000000000
(1435150354.626458) vcan0 004#5907000000000000
(1435150354.627139) vcan0 004#5A07000000000000
(1435150354.627657) vcan0 004#5B07000000000000
(1435150354.627971) vcan0 004#5C07000000000000
(1435150354.628321) vcan0 004#5D07000000000000
(1435150354.628781) vcan0 004#5E07000000000000
(1435150354.629237) vcan0 004#5F07000000000000
(1435150354.629533) vcan0 004#6007000000000000
(1435150354.629917) vcan0 004#6107000000000000
(1435150354.630633) vcan0 004#6207000000000000
(1435150354.631161) vcan0 004#6307000000000000
(1435150354.631477) vcan0 004#6407000000000000
(1435150354.631844) vcan0 004#6507000000000000
(1435150354.632286) vcan0 004#6607000000000000
(1435150354.632732) vcan0 004#6707000000000000
(1435150354.633047) vcan0 004#6807000000000000
(1435150354.633418) vcan0 004#6907000000000000
(1435150354.633535) vcan0 004#6A07000000000000
(1435150354.633749) vcan0 004#6B07000000000000
(1435150354.634499) vcan0 004#6C07000000000000
(1435150354.634858) vcan0 004#6D07000000000000
(1435150354.635120) vcan0 004#6E07000000000000
(1435150354.635547) vcan0 004#6F07000000000000
(1435150354.636176) vcan0 004#7007000000000000
(1435150354.636668) vcan0 004#7107000000000000
(1435150354.636997) vcan0 004#7207000000000000
(1435150354.637356) vcan0 004#7307000000000000
(1435150354.637794) vcan0 004#7407000000000000
(1435150354.638287) vcan0 004#7507000000000000
(1435150354.638763) vcan0 004#7607000000000000
(1435150354.639254) vcan0 004#7707000000000000
(1435150354.639547) vcan0 004#7807000000000000
(1435150354.639932) vcan0 004#7907000000000000
(1435150354.640633) vcan0 004#7A07000000000000
(1435150354.641155) vcan0 004#7B07000000000000
(1435150354.641478) vcan0 004#7C07000000000000
(1435150354.641841) vcan0 004#7D07000000000000
(1435150354.642291) vcan0 004#7E07000000000000
(1435150354.642963) vcan0 004#7F07000000000000
(1435150354.643652) vcan0 004#8007000000000000
(1435150354.644170) vcan0 004#8107000000000000
(1435150354.644492) vcan0 004#8207000000000000
(1435150354.644850) vcan0 004#8307000000000000
(1435150354.645286) vcan0 004#8407000000000000
(1435150354.645721) vcan0 004#8507000000000000
(1435150354.646034) vcan0 004#8607000000000000
(1435150354.646325) vcan0 004#8707000000000000
(1435150354.646777) vcan0 004#8807000000000000
(1435150354.647272) vcan0 004#8907000000000000
(1435150354.647743) vcan0 004#8A07000000000000
(1435150354.648203) vcan0 004#8B07000000000000
(1435150354.648525) vcan0 004#8C07000000000000
(1435150354.649161) vcan0 004#8D07000000000000
(1435150354.649678) vcan0 004#8E07000000000000
(1435150354.649988) vcan0 004#8F07000000000000
(1435150354.650327) vcan0 004#9007000000000000
(1435150354.650792) vcan0 004#9107000000000000
(1435150354.651313) vcan0 004#9207000000000000
(1435150354.652406) vcan0 004#9307000000000000
(1435150354.652692) vcan0 004#9407000000000000
(1435150354.653103) vcan0 004#9507000000000000
(1435150354.653721) vcan0 004#9607000000000000
(1435150354.654250) vcan0 004#9707000000000000
(1435150354.654741) vcan0 004#9807000000000000
(1435150354.655211) vcan0 004#9907000000000000
(1435150354.655531) vcan0 004#9A07000000000000
(1435150354.655892) vcan0 004#9B07000000000000
(1435150354.656151) vcan0 004#9C07000000000000
(1435150354.656862) vcan0 004#9D07000000000000
(1435150354.657421) vcan0 004#9E07000000000000
(1435150354.657702) vcan0 004#9F07000000000000
(1435150354.658658) vcan0 004#A007000000000000
(1435150354.658985) vcan0 004#A107000000000000
(1435150354.659620) vcan0 004#A207000000000000
(1435150354.660227) vcan0 004#A307000000000000
(1435150354.660725) vcan0 004#A407000000000000
(1435150354.661016) vcan0 004#A507000000000000
(1435150354.661396) vcan0 004#A607000000000000
(1435150354.661656) vcan0 004#A707000000000000
(1435150354.662407) vcan0 004#A807000000000000
(1435150354.662805) vcan0 004#A907000000000000
(1435150354.663001) vcan0 004#AA07000000000000
(1435150354.663410) vcan0 004#AB07000000000000
(1435150354.663663) vcan0 004#AC07000000000000
(1435150354.664367) vcan0 004#AD07000000000000
(1435150354.664726) vcan0 004#AE07000000000000
(1435150354.664952) vcan0 004#AF07000000000000
(1435150354.665202) vcan0 004#B007000000000000
(1435150354.665431) vcan0 004#B107000000000000
(1435150354.665655) vcan0 004#B207000000000000
(1435150354.665891) vcan0 004#B307000000000000
(1435150354.666112) vcan0 004#B407000000000000
(1435150354.666384) vcan0 004#B507000000000000
(1435150354.666617) vcan0 004#B607000000000000
(1435150354.666880) vcan0 004#B707000000000000
(1435150354.667327) vcan0 004#B807000000000000
(1435150354.667566) vcan0 004#B907000000000000
(1435150354.667874) vcan0 004#BA07000000000000
(1435150354.668113) vcan0 004#BB07000000000000
(1435150354.668367) vcan0 004#BC07000000000000
(1435150354.668606) vcan0 004#BD07000000000000
(1435150354.668859) vcan0 004#BE07000000000000
(1435150354.669098) vcan0 004#BF07000000000000
(1435150354.669353) vcan0 004#C007000000000000
(1435150354.669591) vcan0 004#C107000000000000
(1435150354.669836) vcan0 004#C207000000000000
(1435150354.670105) vcan0 004#C307000000000000
(1435150354.670361) vcan0 004#C407000000000000
(1435150354.670599) vcan0 004#C507000000000000
(1435150354.670852) vcan0 004#C607000000000000
(1435150354.671091) vcan0 004#C707000000000000
(1435150354.671330) vcan0 004#C807000000000000
(1435150354.671569) vcan0 004#C907000000000000
(1435150354.671813) vcan0 004#CA07000000000000
(1435150354.672046) vcan0 004#CB07000000000000
(1435150354.672280) vcan0 004#CC07000000000000
(1435150354.672512) vcan0 004#CD07000000000000
(1435150354.672746) vcan0 004#CE07000000000000
(1435150354.672979) vcan0 004#CF07000000000000
(1435150354.673232) vcan0 004#D007000000000000
(1435150354.673476) vcan0 004#D107000000000000
(1435150354.673728) vcan0 004#D207000000000000
(1435150354.673960) vcan0 004#D307000000000000
(1435150354.674228) vcan0 004#D407000000000000
(1435150354.674461) vcan0 004#D507000000000000
(1435150354.674716) vcan0 004#D607000000000000
(1435150354.674949) vcan0 004#D707000000000000
(1435150354.675202) vcan0 004#D807000000000000
(1435150354.675436) vcan0 004#D907000000000000
(1435150354.675681) vcan0 004#DA07000000000000
(1435150354.675925) vcan0 004#DB07000000000000
(1435150354.676180) vcan0 004#DC07000000000000
(1435150354.676528) vcan0 004#DD07000000000000
(1435150354.677133) vcan0 004#DE07000000000000
(1435150354.677411) vcan0 004#DF07000000000000
(1435150354.677934) vcan0 004#E007000000000000
(1435150354.678671) vcan0 004#E107000000000000
(1435150354.678952) vcan0 004#E207000000000000
(1435150354.679216) vcan0 004#E307000000000000
(1435150354.679453) vcan0 004#E407000000000000
(1435150354.679701) vcan0 004#E507000000000000
(1435150354.679935) vcan0 004#E607000000000000
(1435150354.680199) vcan0 004#E707000000000000
(1435150354.680442) vcan0 004#E807000000000000
(1435150354.680703) vcan0 004#E907000000000000
(1435150354.680946) vcan0 004#EA07000000000000
(1435150354.681207) vcan0 004#EB07000000000000
(1435150354.681449) vcan0 004#EC07000000000000
(1435150354.681711) vcan0 004#ED07000000000000
(1435150354.681952) vcan0 004#EE07000000000000
(1435150354.682213) vcan0 004#EF07000000000000
(1435150354.682455) vcan0 004#F007000000000000
(1435150354.682708) vcan0 004#F107000000000000
(1435150354.682950) vcan0 004#F207000000000000
(1435150354.683211) vcan0 004#F307000000000000
(1435150354.683453) vcan0 004#F407000000000000
(1435150354.683698) vcan0 004#F507000000000000
(1435150354.683950) vcan0 004#F607000000000000
(1435150354.684229) vcan0 004#F707000000000000
(1435150354.684524) vcan0 004#F807000000000000
(1435150354.684938) vcan0 004#F907000000000000
(1435150354.685225) vcan0 004#FA07000000000000
(1435150354.685468) vcan0 004#FB07000000000000
(1435150354.685720) vcan0 004#FC07000000000000
(1435150354.685954) vcan0 004#FD07000000000000
(1435150354.686198) vcan0 004#FE07000000000000
(1435150354.686432) vcan0 004#FF07000000000000
(1435150354.686678) vcan0 004#0008000000000000
(1435150354.686922) vcan0 004#0108000000000000
(1435150354.687169) vcan0 004#0208000000000000
(1435150354.687413) vcan0 004#0308000000000000
(1435150354.687635) vcan0 004#0408000000000000
(1435150354.687899) vcan0 004#0508000000000000
(1435150354.688132) vcan0 004#0608000000000000
(1435150354.688385) vcan0 004#0708000000000000
(1435150354.688618) vcan0 004#0808000000000000
(1435150354.688884) vcan0 004#0908000000000000
(1435150354.689117) vcan0 004#0A08000000000000
(1435150354.689383) vcan0 004#0B08000000000000
(1435150354.689647) vcan0 004#0C08000000000000
(1435150354.689885) vcan0 004#0D08000000000000
(1435150354.690119) vcan0 004#0E08000000000000
(1435150354.690382) vcan0 004#0F08000000000000
(1435150354.690616) vcan0 004#1008000000000000
(1435150354.690882) vcan0 004#1108000000000000
(1435150354.691116) vcan0 004#1208000000000000
(1435150354.691393) vcan0 004#1308000000000000
(1435150354.691627) vcan0 004#1408000000000000
(1435150354.691893) vcan0 004#1508000000000000
(1435150354.692128) vcan0 004#1608000000000000
(1435150354.692381) vcan0 004#1708000000000000
(1435150354.692616) vcan0 004#1808000000000000
(1435150354.692816) vcan0 004#1908000000000000
(1435150354.693058) vcan0 004#1A08000000000000
(1435150354.693301) vcan0 004#1B08000000000000
(1435150354.693543) vcan0 004#1C08000000000000
(1435150354.693787) vcan0 004#1D08000000000000
(1435150354.693982) vcan0 004#1E08000000000000
(1435150354.694225) vcan0 004#1F08000000000000
(1435150354.694461) vcan0 004#2008000000000000
(1435150354.694721) vcan0 004#2108000000000000
(1435150354.694955) vcan0 004#2208000000000000
(1435150354.695210) vcan0 004#2308000000000000
(1435150354.695443) vcan0 004#2408000000000000
(1435150354.695683) vcan0 004#2508000000000000
(1435150354.695916) vcan0 004#2608000000000000
(1435150354.696169) vcan0 004#2708000000000000
(1435150354.696411) vcan0 004#2808000000000000
(1435150354.696646) vcan0 004#2908000000000000
(1435150354.696914) vcan0 004#2A08000000000000
(1435150354.697181) vcan0 004#2B08000000000000
(1435150354.697420) vcan0 004#2C08000000000000
(1435150354.697665) vcan0 004#2D08000000000000
(1435150354.697868) vcan0 004#2E08000000000000
(1435150354.698119) vcan0 004#2F08000000000000
(1435150354.698387) vcan0 004#3008000000000000
(1435150354.698664) vcan0 004#3108000000000000
(1435150354.698927) vcan0 004#3208000000000000
(1435150354.699185) vcan0 004#3308000000000000
(1435150354.699434) vcan0 004#3408000000000000
(1435150354.699696) vcan0 004#3508000000000000
(1435150354.699944) vcan0 004#3608000000000000
(1435150354.700195) vcan0 004#3708000000000000
(1435150354.700447) vcan0 004#3808000000000000
(1435150354.700699) vcan0 004#3908000000000000
(1435150354.700949) vcan0 004#3A08000000000000
(1435150354.701204) vcan0 004#3B08000000000000
(1435150354.701458) vcan0 004#3C08000000000000
(1435150354.701711) vcan0 004#3D08000000000000
(1435150354.701963) vcan0 004#3E08000000000000
(1435150354.702207) vcan0 004#3F08000000000000
(1435150354.702448) vcan0 004#4008000000000000
(1435150354.702691) vcan0 004#4108000000000000
(1435150354.702942) vcan0 004#4208000000000000
(1435150354.703187) vcan0 004#4308000000000000
(1435150354.703421) vcan0 004#4408000000000000
(1435150354.703666) vcan0 004#4508000000000000
(1435150354.703908) vcan0 004#4608000000000000
(1435150354.704146) vcan0 004#4708000000000000
(1435150354.704397) vcan0 004#4808000000000000
(1435150354.704627) vcan0 004#4908000000000000
(1435150354.704907) vcan0 004#4A08000000000000
(1435150354.705145) vcan0 004#4B08000000000000
(1435150354.705417) vcan0 004#4C08000000000000
(1435150354.705656) vcan0 004#4D08000000000000
