(1430902923.138343) vcan0 009#02AA000000000000
(1430902923.138947) vcan0 008#00000FA000000000
(1430902923.241437) vcan0 009#02AD000000000000
(1430902923.241754) vcan0 008#00510FA000000000
(1430902923.344004) vcan0 009#02AF000000000000
(1430902923.344308) vcan0 008#00020FA000000000
(1430902923.449336) vcan0 009#02B2000000000000
(1430902923.454177) vcan0 008#00450FA000000000
(1430902923.559882) vcan0 009#02B5000000000000
(1430902923.564776) vcan0 008#00800FA000000000
(1430902923.670014) vcan0 009#02B7000000000000
(1430902923.674919) vcan0 008#00E40FA000000000
(1430902923.780258) vcan0 009#02BA000000000000
(1430902923.785128) vcan0 008#01B10FA000000000
(1430902923.890494) vcan0 009#02BD000000000000
(1430902923.895318) vcan0 008#01FF0FF800000000
(1430902924.000580) vcan0 009#02BF000000000000
(1430902924.005393) vcan0 008#01FB0FD800000000
(1430902924.110719) vcan0 009#02C1000000000000
(1430902924.115860) vcan0 008#0204102400000000
(1430902924.221595) vcan0 009#02C4000000000000
(1430902924.226478) vcan0 008#0283141C00000000
(1430902924.331973) vcan0 009#02C6000000000000
(1430902924.336726) vcan0 008#026F137800000000
(1430902924.442002) vcan0 009#02C8000000000000
(1430902924.446798) vcan0 008#02B515AC00000000
(1430902924.552243) vcan0 009#02CA000000000000
(1430902924.556863) vcan0 008#02C2161400000000
(1430902924.662413) vcan0 009#02CD000000000000
(1430902924.667006) vcan0 008#02E5172800000000
(1430902924.772399) vcan0 009#02CE000000000000
(1430902924.777021) vcan0 008#03491A4800000000
(1430902924.882576) vcan0 009#02D0000000000000
(1430902924.887109) vcan0 008#0309184C00000000
(1430902924.992683) vcan0 009#02D3000000000000
(1430902924.997318) vcan0 008#03951CA800000000
(1430902925.102744) vcan0 009#02D4000000000000
(1430902925.107376) vcan0 008#03EE1F7000000000
(1430902925.212779) vcan0 009#02D6000000000000
(1430902925.216730) vcan0 008#03DD1EEC00000000
(1430902925.321967) vcan0 009#02D8000000000000
(1430902925.326831) vcan0 008#0444222000000000
(1430902925.432268) vcan0 009#02DA000000000000
(1430902925.436783) vcan0 008#035A1AD000000000
(1430902925.542025) vcan0 009#02DB000000000000
(1430902925.546798) vcan0 008#038A1C5000000000
(1430902925.652344) vcan0 009#02DD000000000000
(1430902925.656930) vcan0 008#03AF1D7C00000000
(1430902925.762340) vcan0 009#02DF000000000000
(1430902925.766886) vcan0 008#03C01E0400000000
(1430902925.872335) vcan0 009#02E1000000000000
(1430902925.876941) vcan0 008#03EB1F5800000000
(1430902925.982441) vcan0 009#02E2000000000000
(1430902925.987032) vcan0 008#0468234000000000
(1430902926.092518) vcan0 009#02E4000000000000
(1430902926.097065) vcan0 008#049424A400000000
(1430902926.202547) vcan0 009#02E5000000000000
(1430902926.207160) vcan0 008#049F24FC00000000
(1430902926.312668) vcan0 009#02E7000000000000
(1430902926.317294) vcan0 008#0450228000000000
(1430902926.423128) vcan0 009#02E8000000000000
(1430902926.427162) vcan0 008#044B225800000000
(1430902926.532568) vcan0 009#02EA000000000000
(1430902926.537144) vcan0 008#03AF1D7800000000
(1430902926.642780) vcan0 009#02EB000000000000
(1430902926.647343) vcan0 008#036F1B7800000000
(1430902926.752836) vcan0 009#02ED000000000000
(1430902926.757477) vcan0 008#0428214000000000
(1430902926.862930) vcan0 009#02EE000000000000
(1430902926.867456) vcan0 008#04CA265000000000
(1430902926.972977) vcan0 009#02EF000000000000
(1430902926.977600) vcan0 008#043521AC00000000
(1430902927.083140) vcan0 009#02F1000000000000
(1430902927.087767) vcan0 008#048C246400000000
(1430902927.193222) vcan0 009#02F3000000000000
(1430902927.197798) vcan0 008#044D226C00000000
(1430902927.303436) vcan0 009#02F4000000000000
(1430902927.308021) vcan0 008#04CA265000000000
(1430902927.413500) vcan0 009#02F5000000000000
(1430902927.418119) vcan0 008#05662B3000000000
(1430902927.523546) vcan0 009#02F6000000000000
(1430902927.528600) vcan0 008#056B2B5800000000
(1430902927.634128) vcan0 009#02F7000000000000
(1430902927.638769) vcan0 008#054C2A6000000000
(1430902927.744181) vcan0 009#02F8000000000000
(1430902927.748727) vcan0 008#05982CC000000000
(1430902927.854165) vcan0 009#02F9000000000000
(1430902927.858766) vcan0 008#059B2CD800000000
(1430902927.964973) vcan0 009#02FA000000000000
(1430902927.969628) vcan0 008#065A10F000000000
(1430902928.075120) vcan0 009#02FB000000000000
(1430902928.079784) vcan0 008#06A511B800000000
(1430902928.185864) vcan0 009#02FC000000000000
(1430902928.190545) vcan0 008#071912F000000000
(1430902928.295926) vcan0 009#02FD000000000000
(1430902928.300536) vcan0 008#076913C400000000
(1430902928.405924) vcan0 009#02FE000000000000
(1430902928.410554) vcan0 008#06E7126800000000
(1430902928.515987) vcan0 009#02FF000000000000
(1430902928.520588) vcan0 008#0756139000000000
(1430902928.625988) vcan0 009#0300000000000000
(1430902928.629947) vcan0 008#07C014AC00000000
(1430902928.735329) vcan0 009#0301000000000000
(1430902928.739979) vcan0 008#0859164400000000
(1430902928.845434) vcan0 009#0301000000000000
(1430902928.850068) vcan0 008#089516E400000000
(1430902928.955472) vcan0 009#0302000000000000
(1430902928.960015) vcan0 008#094518BC00000000
(1430902929.065601) vcan0 009#0303000000000000
(1430902929.070229) vcan0 008#08B2173400000000
(1430902929.175658) vcan0 009#0305000000000000
(1430902929.180310) vcan0 008#092F188000000000
(1430902929.285826) vcan0 009#0306000000000000
(1430902929.290462) vcan0 008#087C16A400000000
(1430902929.395900) vcan0 009#0307000000000000
(1430902929.400483) vcan0 008#0811158400000000
(1430902929.506061) vcan0 009#0307000000000000
(1430902929.510668) vcan0 008#08B7174000000000
(1430902929.616169) vcan0 009#0308000000000000
(1430902929.620843) vcan0 008#0990198400000000
(1430902929.726245) vcan0 009#0309000000000000
(1430902929.730876) vcan0 008#093E18A800000000
(1430902929.836865) vcan0 009#0309000000000000
(1430902929.841524) vcan0 008#092A187400000000
(1430902929.946812) vcan0 009#030B000000000000
(1430902929.951463) vcan0 008#08E017AC00000000
(1430902930.056759) vcan0 009#030B000000000000
(1430902930.061434) vcan0 008#08FF180000000000
(1430902930.166685) vcan0 009#030C000000000000
(1430902930.171466) vcan0 008#08B5173C00000000
(1430902930.276736) vcan0 009#030D000000000000
(1430902930.281352) vcan0 008#085F165400000000
(1430902930.386673) vcan0 009#030D000000000000
(1430902930.391322) vcan0 008#088716C000000000
(1430902930.496461) vcan0 009#030E000000000000
(1430902930.501286) vcan0 008#099E19A800000000
(1430902930.606700) vcan0 009#030F000000000000
(1430902930.611351) vcan0 008#0A271B1400000000
(1430902930.716872) vcan0 009#030F000000000000
(1430902930.721483) vcan0 008#0A1D1AFC00000000
(1430902930.826760) vcan0 009#0310000000000000
(1430902930.831387) vcan0 008#09AB19CC00000000
(1430902930.936713) vcan0 009#0311000000000000
(1430902930.941720) vcan0 008#09DC1A5000000000
(1430902931.047186) vcan0 009#0312000000000000
(1430902931.051834) vcan0 008#09CD1A2400000000
(1430902931.157283) vcan0 009#0313000000000000
(1430902931.161910) vcan0 008#09CE1A2800000000
(1430902931.267477) vcan0 009#0314000000000000
(1430902931.272300) vcan0 008#09A019AC00000000
(1430902931.377665) vcan0 009#0314000000000000
(1430902931.382465) vcan0 008#09A219B400000000
(1430902931.487745) vcan0 009#0315000000000000
(1430902931.492570) vcan0 008#09E31A6000000000
(1430902931.597861) vcan0 009#0316000000000000
(1430902931.602603) vcan0 008#0A541B9000000000
(1430902931.708241) vcan0 009#0317000000000000
(1430902931.713041) vcan0 008#0A0A1AC800000000
(1430902931.818351) vcan0 009#0317000000000000
(1430902931.823167) vcan0 008#0A7C1BF800000000
(1430902931.928479) vcan0 009#0317000000000000
(1430902931.933306) vcan0 008#0A851C1000000000
(1430902932.038659) vcan0 009#0318000000000000
(1430902932.042745) vcan0 008#0A731BE000000000
(1430902932.148623) vcan0 009#0319000000000000
(1430902932.152621) vcan0 008#09F91A9800000000
(1430902932.258847) vcan0 009#031A000000000000
(1430902932.263432) vcan0 008#0A121ADC00000000
(1430902932.368747) vcan0 009#031B000000000000
(1430902932.373536) vcan0 008#09C51A1000000000
(1430902932.478868) vcan0 009#031C000000000000
(1430902932.482694) vcan0 008#095418E400000000
(1430902932.587954) vcan0 009#031C000000000000
(1430902932.592885) vcan0 008#09D31A3400000000
(1430902932.698159) vcan0 009#031D000000000000
(1430902932.702625) vcan0 008#09D51A3800000000
(1430902932.807958) vcan0 009#031D000000000000
(1430902932.812808) vcan0 008#0ABB1CA000000000
(1430902932.918089) vcan0 009#031E000000000000
(1430902932.922894) vcan0 008#0B271DC000000000
(1430902933.028187) vcan0 009#031E000000000000
(1430902933.033006) vcan0 008#0B6D1E7C00000000
(1430902933.138323) vcan0 009#031F000000000000
(1430902933.143158) vcan0 008#0C0E202800000000
(1430902933.248842) vcan0 009#031F000000000000
(1430902933.253639) vcan0 008#0BC11F5C00000000
(1430902933.358924) vcan0 009#0320000000000000
(1430902933.362790) vcan0 008#0C24206400000000
(1430902933.468022) vcan0 009#031F000000000000
(1430902933.472839) vcan0 008#0B7A1E9C00000000
(1430902933.578178) vcan0 009#031F000000000000
(1430902933.582990) vcan0 008#0BA81F1800000000
(1430902933.688282) vcan0 009#031F000000000000
(1430902933.693080) vcan0 008#0C4920C400000000
(1430902933.798363) vcan0 009#0320000000000000
(1430902933.803071) vcan0 008#0C92218800000000
(1430902933.908338) vcan0 009#0320000000000000
(1430902933.913059) vcan0 008#0CC6221400000000
(1430902934.018380) vcan0 009#0320000000000000
(1430902934.023087) vcan0 008#0C4720C000000000
(1430902934.128402) vcan0 009#0321000000000000
(1430902934.133234) vcan0 008#0BBF1F5400000000
(1430902934.238515) vcan0 009#0321000000000000
(1430902934.243353) vcan0 008#0B5B1E4C00000000
(1430902934.348625) vcan0 009#0322000000000000
(1430902934.351336) vcan0 008#0B871EC000000000
(1430902934.459270) vcan0 009#0322000000000000
(1430902934.464433) vcan0 008#0BD11F8800000000
(1430902934.569753) vcan0 009#0322000000000000
(1430902934.574615) vcan0 008#0BE11FB000000000
(1430902934.679914) vcan0 009#0322000000000000
(1430902934.684783) vcan0 008#0CB221DC00000000
(1430902934.790118) vcan0 009#0323000000000000
(1430902934.794926) vcan0 008#0D1122DC00000000
(1430902934.900203) vcan0 009#0323000000000000
(1430902934.905046) vcan0 008#0D49237400000000
(1430902935.010352) vcan0 009#0324000000000000
(1430902935.015197) vcan0 008#0D3B234C00000000
(1430902935.120465) vcan0 009#0324000000000000
(1430902935.125279) vcan0 008#0D31233000000000
(1430902935.230548) vcan0 009#0325000000000000
(1430902935.235335) vcan0 008#0CFF22AC00000000
(1430902935.340584) vcan0 009#0325000000000000
(1430902935.345459) vcan0 008#0D87241400000000
(1430902935.450772) vcan0 009#0326000000000000
(1430902935.455916) vcan0 008#0E5614E000000000
(1430902935.561235) vcan0 009#0326000000000000
(1430902935.566005) vcan0 008#0E5F14EC00000000
(1430902935.671289) vcan0 009#0326000000000000
(1430902935.676083) vcan0 008#0EA9155800000000
(1430902935.781344) vcan0 009#0327000000000000
(1430902935.786122) vcan0 008#0F1415F400000000
(1430902935.891446) vcan0 009#0328000000000000
(1430902935.896276) vcan0 008#0EAB155C00000000
(1430902936.001649) vcan0 009#0327000000000000
(1430902936.006408) vcan0 008#0E87152400000000
(1430902936.111702) vcan0 009#0327000000000000
(1430902936.116489) vcan0 008#0EC5158000000000
(1430902936.221877) vcan0 009#0327000000000000
(1430902936.226707) vcan0 008#0F21160400000000
(1430902936.331972) vcan0 009#0328000000000000
(1430902936.336728) vcan0 008#0F41163400000000
(1430902936.441999) vcan0 009#0328000000000000
(1430902936.446785) vcan0 008#0F75168000000000
(1430902936.554071) vcan0 009#0329000000000000
(1430902936.558531) vcan0 008#101E177800000000
(1430902936.664890) vcan0 009#0329000000000000
(1430902936.669437) vcan0 008#107C180000000000
(1430902936.774896) vcan0 009#032A000000000000
(1430902936.779451) vcan0 008#1011176400000000
(1430902936.884843) vcan0 009#032A000000000000
(1430902936.889406) vcan0 008#10C4186800000000
(1430902936.994936) vcan0 009#032A000000000000
(1430902936.999496) vcan0 008#103F17A400000000
(1430902937.105678) vcan0 009#032A000000000000
(1430902937.110160) vcan0 008#10D8188400000000
(1430902937.215619) vcan0 009#032B000000000000
(1430902937.220257) vcan0 008#10DE188C00000000
(1430902937.325681) vcan0 009#032B000000000000
(1430902937.330311) vcan0 008#1150193400000000
(1430902937.435968) vcan0 009#032B000000000000
(1430902937.440589) vcan0 008#1154193C00000000
(1430902937.547214) vcan0 009#032C000000000000
(1430902937.551763) vcan0 008#1175196C00000000
(1430902937.657194) vcan0 009#032C000000000000
(1430902937.661821) vcan0 008#1134190C00000000
(1430902937.767711) vcan0 009#032C000000000000
(1430902937.772643) vcan0 008#113F191C00000000
(1430902937.878034) vcan0 009#032C000000000000
(1430902937.882852) vcan0 008#11A819B400000000
(1430902937.988138) vcan0 009#032C000000000000
(1430902937.992941) vcan0 008#11A519B000000000
(1430902938.098339) vcan0 009#032C000000000000
(1430902938.103164) vcan0 008#12441A9800000000
(1430902938.208461) vcan0 009#032D000000000000
(1430902938.213323) vcan0 008#12281A6C00000000
(1430902938.318623) vcan0 009#032D000000000000
(1430902938.323421) vcan0 008#12331A8000000000
(1430902938.428758) vcan0 009#032D000000000000
(1430902938.433583) vcan0 008#12761AE000000000
(1430902938.538919) vcan0 009#032E000000000000
(1430902938.542750) vcan0 008#12341A8000000000
(1430902938.648235) vcan0 009#032E000000000000
(1430902938.653013) vcan0 008#126D1AD400000000
(1430902938.758303) vcan0 009#032E000000000000
(1430902938.763101) vcan0 008#12841AF400000000
(1430902938.868366) vcan0 009#032E000000000000
(1430902938.873616) vcan0 008#12C41B5000000000
(1430902938.978933) vcan0 009#032E000000000000
(1430902938.982779) vcan0 008#13611C3400000000
(1430902939.088447) vcan0 009#032E000000000000
(1430902939.093228) vcan0 008#13DE1CEC00000000
(1430902939.198506) vcan0 009#032E000000000000
(1430902939.203489) vcan0 008#14561D9C00000000
(1430902939.308812) vcan0 009#032E000000000000
(1430902939.313627) vcan0 008#147C1DD400000000
(1430902939.418857) vcan0 009#032E000000000000
(1430902939.422708) vcan0 008#14C81E4000000000
(1430902939.528005) vcan0 009#032E000000000000
(1430902939.532801) vcan0 008#14E01E6400000000
(1430902939.638059) vcan0 009#032E000000000000
(1430902939.642877) vcan0 008#14A91E1400000000
(1430902939.748132) vcan0 009#032E000000000000
(1430902939.752952) vcan0 008#14821DDC00000000
(1430902939.858233) vcan0 009#032E000000000000
(1430902939.863061) vcan0 008#13D71CE400000000
(1430902939.968327) vcan0 009#032E000000000000
(1430902939.973115) vcan0 008#13AE1CA800000000
(1430902940.078716) vcan0 009#032E000000000000
(1430902940.083539) vcan0 008#13881C7000000000
(1430902940.188881) vcan0 009#032E000000000000
(1430902940.192731) vcan0 008#13FF1D1C00000000
(1430902940.298362) vcan0 009#032F000000000000
(1430902940.303167) vcan0 008#13DB1CE800000000
(1430902940.408418) vcan0 009#0330000000000000
(1430902940.413245) vcan0 008#14051D2400000000
(1430902940.518548) vcan0 009#0330000000000000
(1430902940.523327) vcan0 008#13CD1CD400000000
(1430902940.628624) vcan0 009#0330000000000000
(1430902940.633423) vcan0 008#13F71D1000000000
(1430902940.738712) vcan0 009#0330000000000000
(1430902940.743572) vcan0 008#14621DAC00000000
(1430902940.849012) vcan0 009#0330000000000000
(1430902940.853822) vcan0 008#150D1EA400000000
(1430902940.959139) vcan0 009#0330000000000000
(1430902940.963928) vcan0 008#14C61E3C00000000
(1430902941.069192) vcan0 009#0330000000000000
(1430902941.074023) vcan0 008#13DC1CE800000000
(1430902941.179276) vcan0 009#032F000000000000
(1430902941.184653) vcan0 008#14261D5400000000
(1430902941.289958) vcan0 009#0330000000000000
(1430902941.294816) vcan0 008#14AE1E1C00000000
(1430902941.400076) vcan0 009#0330000000000000
(1430902941.404916) vcan0 008#14D21E5000000000
(1430902941.510169) vcan0 009#0330000000000000
(1430902941.514984) vcan0 008#156A1F2C00000000
(1430902941.620582) vcan0 009#0330000000000000
(1430902941.625393) vcan0 008#151E1EBC00000000
(1430902941.730642) vcan0 009#0330000000000000
(1430902941.735441) vcan0 008#15801F4C00000000
(1430902941.840686) vcan0 009#032F000000000000
(1430902941.845476) vcan0 008#150C1EA400000000
(1430902941.950769) vcan0 009#0330000000000000
(1430902941.955565) vcan0 008#15761F4000000000
(1430902942.060833) vcan0 009#0330000000000000
(1430902942.066265) vcan0 008#15C71FB400000000
(1430902942.171598) vcan0 009#0330000000000000
(1430902942.176330) vcan0 008#167220AC00000000
(1430902942.281624) vcan0 009#0331000000000000
(1430902942.285690) vcan0 008#166F20A800000000
(1430902942.391615) vcan0 009#0330000000000000
(1430902942.396303) vcan0 008#16AD210400000000
(1430902942.501904) vcan0 009#0330000000000000
(1430902942.506643) vcan0 008#16CE213400000000
(1430902942.611952) vcan0 009#0331000000000000
(1430902942.616719) vcan0 008#16A220F400000000
(1430902942.721992) vcan0 009#0330000000000000
(1430902942.726804) vcan0 008#16A520F800000000
(1430902942.832322) vcan0 009#0331000000000000
(1430902942.836929) vcan0 008#172A21B800000000
(1430902942.942676) vcan0 009#0331000000000000
(1430902942.947319) vcan0 008#17A0226400000000
(1430902943.052750) vcan0 009#0331000000000000
(1430902943.057359) vcan0 008#1792225000000000
(1430902943.163921) vcan0 009#0331000000000000
(1430902943.168352) vcan0 008#1790224C00000000
(1430902943.274518) vcan0 009#0331000000000000
(1430902943.278929) vcan0 008#17B0227C00000000
(1430902943.384322) vcan0 009#0331000000000000
(1430902943.389349) vcan0 008#17C7229C00000000
(1430902943.494959) vcan0 009#0331000000000000
(1430902943.499625) vcan0 008#17C5229C00000000
(1430902943.605123) vcan0 009#0332000000000000
(1430902943.609759) vcan0 008#17E222C400000000
(1430902943.715212) vcan0 009#0331000000000000
(1430902943.719873) vcan0 008#17CB22A400000000
(1430902943.825476) vcan0 009#0331000000000000
(1430902943.830463) vcan0 008#175E220400000000
(1430902943.935887) vcan0 009#0332000000000000
(1430902943.940554) vcan0 008#17E622CC00000000
(1430902944.046025) vcan0 009#0332000000000000
(1430902944.050645) vcan0 008#180522F800000000
(1430902944.156051) vcan0 009#0332000000000000
(1430902944.160677) vcan0 008#17FF22F000000000
(1430902944.266120) vcan0 009#0332000000000000
(1430902944.270780) vcan0 008#17A1226400000000
(1430902944.376209) vcan0 009#0333000000000000
(1430902944.380841) vcan0 008#184F236400000000
(1430902944.486227) vcan0 009#0333000000000000
(1430902944.491432) vcan0 008#1821232000000000
(1430902944.597272) vcan0 009#0333000000000000
(1430902944.601944) vcan0 008#181E231C00000000
(1430902944.707448) vcan0 009#0333000000000000
(1430902944.712593) vcan0 008#17E822CC00000000
(1430902944.817897) vcan0 009#0333000000000000
(1430902944.822700) vcan0 008#1790224C00000000
(1430902944.927982) vcan0 009#0333000000000000
(1430902944.932819) vcan0 008#180F230800000000
(1430902945.038085) vcan0 009#0333000000000000
(1430902945.042923) vcan0 008#17E022C400000000
(1430902945.148310) vcan0 009#0333000000000000
(1430902945.152615) vcan0 008#17B7228800000000
(1430902945.257917) vcan0 009#0333000000000000
(1430902945.262739) vcan0 008#1711219400000000
(1430902945.368096) vcan0 009#0333000000000000
(1430902945.373139) vcan0 008#16CA212C00000000
(1430902945.478786) vcan0 009#0333000000000000
(1430902945.483607) vcan0 008#167F20C000000000
(1430902945.588879) vcan0 009#0333000000000000
(1430902945.593241) vcan0 008#165A208800000000
(1430902945.699323) vcan0 009#0333000000000000
(1430902945.702758) vcan0 008#16D7214000000000
(1430902945.808025) vcan0 009#0334000000000000
(1430902945.812822) vcan0 008#16B3210C00000000
(1430902945.918430) vcan0 009#0333000000000000
(1430902945.923286) vcan0 008#16C4212400000000
(1430902946.028589) vcan0 009#0334000000000000
(1430902946.033336) vcan0 008#1642206800000000
(1430902946.138617) vcan0 009#0333000000000000
(1430902946.143439) vcan0 008#1613202400000000
(1430902946.248780) vcan0 009#0333000000000000
(1430902946.253620) vcan0 008#1664209800000000
(1430902946.358906) vcan0 009#0333000000000000
(1430902946.362726) vcan0 008#167120AC00000000
(1430902946.467919) vcan0 009#0333000000000000
(1430902946.472778) vcan0 008#16DD214800000000
(1430902946.578074) vcan0 009#0333000000000000
(1430902946.582851) vcan0 008#16BA211400000000
(1430902946.688126) vcan0 009#0333000000000000
(1430902946.692948) vcan0 008#16C4212400000000
(1430902946.798226) vcan0 009#0332000000000000
(1430902946.802553) vcan0 008#172021A800000000
(1430902946.907868) vcan0 009#0332000000000000
(1430902946.912652) vcan0 008#17CF22A800000000
(1430902947.017984) vcan0 009#0333000000000000
(1430902947.022799) vcan0 008#1791225000000000
(1430902947.128568) vcan0 009#0333000000000000
(1430902947.133391) vcan0 008#18A223DC00000000
(1430902947.238686) vcan0 009#0333000000000000
(1430902947.243530) vcan0 008#1858237000000000
(1430902947.348849) vcan0 009#0333000000000000
(1430902947.352688) vcan0 008#1866238400000000
(1430902947.457963) vcan0 009#0333000000000000
(1430902947.462783) vcan0 008#189623CC00000000
(1430902947.568095) vcan0 009#0332000000000000
(1430902947.572912) vcan0 008#188823B400000000
(1430902947.678262) vcan0 009#0333000000000000
(1430902947.683084) vcan0 008#187A23A000000000
(1430902947.788391) vcan0 009#0333000000000000
(1430902947.793220) vcan0 008#1857237000000000
(1430902947.898516) vcan0 009#0334000000000000
(1430902947.903301) vcan0 008#18D2242000000000
(1430902948.009011) vcan0 009#0334000000000000
(1430902948.013746) vcan0 008#18F9245C00000000
(1430902948.119625) vcan0 009#0334000000000000
(1430902948.124318) vcan0 008#18CF241C00000000
(1430902948.229697) vcan0 009#0335000000000000
(1430902948.234562) vcan0 008#18B323F400000000
(1430902948.339982) vcan0 009#0335000000000000
(1430902948.344811) vcan0 008#195924E800000000
(1430902948.450152) vcan0 009#0335000000000000
(1430902948.454976) vcan0 008#19B7257000000000
(1430902948.560272) vcan0 009#0335000000000000
(1430902948.565109) vcan0 008#198E253400000000
(1430902948.670409) vcan0 009#0335000000000000
(1430902948.675521) vcan0 008#1A62266800000000
(1430902948.780798) vcan0 009#0335000000000000
(1430902948.785602) vcan0 008#1AB826E800000000
(1430902948.890866) vcan0 009#0335000000000000
(1430902948.895644) vcan0 008#1A39262C00000000
(1430902949.000853) vcan0 009#0335000000000000
(1430902949.005996) vcan0 008#1986252800000000
(1430902949.111656) vcan0 009#0335000000000000
(1430902949.116378) vcan0 008#1999254400000000
(1430902949.221661) vcan0 009#0334000000000000
(1430902949.226421) vcan0 008#194324C800000000
(1430902949.331694) vcan0 009#0334000000000000
(1430902949.336363) vcan0 008#196024F000000000
(1430902949.441643) vcan0 009#0334000000000000
(1430902949.446371) vcan0 008#195F24F000000000
(1430902949.551652) vcan0 009#0334000000000000
(1430902949.556283) vcan0 008#19E825B800000000
(1430902949.661585) vcan0 009#0333000000000000
(1430902949.666305) vcan0 008#19C5258400000000
(1430902949.771596) vcan0 009#0334000000000000
(1430902949.776304) vcan0 008#197F252000000000
(1430902949.881629) vcan0 009#0334000000000000
(1430902949.886265) vcan0 008#1A37262800000000
(1430902949.991552) vcan0 009#0334000000000000
(1430902949.998274) vcan0 008#1A7E269000000000
(1430902950.103727) vcan0 009#0334000000000000
(1430902950.108270) vcan0 008#1A4C264800000000
(1430902950.213712) vcan0 009#0334000000000000
(1430902950.218629) vcan0 008#1A3F263400000000
(1430902950.324151) vcan0 009#0334000000000000
(1430902950.328675) vcan0 008#1A86269C00000000
(1430902950.434119) vcan0 009#0334000000000000
(1430902950.438669) vcan0 008#1A8A26A400000000
(1430902950.544091) vcan0 009#0334000000000000
(1430902950.548933) vcan0 008#1ADB271800000000
(1430902950.654354) vcan0 009#0335000000000000
(1430902950.658961) vcan0 008#1AB426E000000000
(1430902950.764477) vcan0 009#0334000000000000
(1430902950.769023) vcan0 008#1AB726E400000000
(1430902950.874479) vcan0 009#0334000000000000
(1430902950.879047) vcan0 008#1A45263C00000000
(1430902950.984612) vcan0 009#0334000000000000
(1430902950.989181) vcan0 008#1A53265400000000
(1430902951.094594) vcan0 009#0334000000000000
(1430902951.099161) vcan0 008#1A2B261800000000
(1430902951.204616) vcan0 009#0333000000000000
(1430902951.209258) vcan0 008#1AA426C800000000
(1430902951.314672) vcan0 009#0333000000000000
(1430902951.319652) vcan0 008#1AA226C400000000
(1430902951.425086) vcan0 009#0333000000000000
(1430902951.429717) vcan0 008#19F325C800000000
(1430902951.535267) vcan0 009#0333000000000000
(1430902951.540250) vcan0 008#1A33262400000000
(1430902951.645683) vcan0 009#0333000000000000
(1430902951.650339) vcan0 008#1AF9274400000000
(1430902951.755747) vcan0 009#0333000000000000
(1430902951.760374) vcan0 008#1AEB273000000000
(1430902951.865903) vcan0 009#0333000000000000
(1430902951.871050) vcan0 008#1BFE1BFC00000000
(1430902951.976448) vcan0 009#0333000000000000
(1430902951.981098) vcan0 008#1C3B1C3800000000
(1430902952.086635) vcan0 009#0333000000000000
(1430902952.091361) vcan0 008#1BFE1BFC00000000
(1430902952.196903) vcan0 009#0332000000000000
(1430902952.201522) vcan0 008#1C181C1800000000
(1430902952.306834) vcan0 009#0333000000000000
(1430902952.311473) vcan0 008#1C611C6000000000
(1430902952.416712) vcan0 009#0333000000000000
(1430902952.421324) vcan0 008#1BCD1BCC00000000
(1430902952.527235) vcan0 009#0333000000000000
(1430902952.531878) vcan0 008#1C881C8800000000
(1430902952.639850) vcan0 009#0333000000000000
(1430902952.656329) vcan0 008#1C851C8400000000
(1430902952.666533) vcan0 007#8000000000000000
(1430902952.761601) vcan0 009#032C000000000000
(1430902952.762585) vcan0 008#1CD71CD400000000
(1430902952.873069) vcan0 009#0325000000000000
(1430902952.877521) vcan0 008#1D561D5400000000
(1430902952.980839) vcan0 009#031F000000000000
(1430902952.981329) vcan0 008#1D181D1800000000
(1430902953.084420) vcan0 009#0319000000000000
(1430902953.084912) vcan0 008#1CE11CE000000000
(1430902953.187943) vcan0 009#0314000000000000
(1430902953.188428) vcan0 008#1C2D1C2C00000000
(1430902953.294339) vcan0 009#030F000000000000
(1430902953.298747) vcan0 008#1C7D1C7C00000000
(1430902953.404178) vcan0 009#030A000000000000
(1430902953.408796) vcan0 008#1CEA1CE800000000
(1430902953.514211) vcan0 009#0305000000000000
(1430902953.518813) vcan0 008#1D5C1D5C00000000
(1430902953.624670) vcan0 009#0300000000000000
(1430902953.628224) vcan0 008#1E661E6400000000
(1430902953.735201) vcan0 009#02FC000000000000
(1430902953.739849) vcan0 008#1E591E5800000000
(1430902953.845312) vcan0 009#02F8000000000000
(1430902953.849868) vcan0 008#1E511E5000000000
(1430902953.955306) vcan0 009#02F4000000000000
(1430902953.959937) vcan0 008#1E9B1E9800000000
(1430902954.066023) vcan0 009#02F0000000000000
(1430902954.070702) vcan0 008#1F6C1F6C00000000
(1430902954.176139) vcan0 009#02ED000000000000
(1430902954.180837) vcan0 008#1F281F2800000000
(1430902954.286245) vcan0 009#02E9000000000000
(1430902954.290854) vcan0 008#1FCB1FC800000000
(1430902954.396360) vcan0 009#02E6000000000000
(1430902954.401012) vcan0 008#1FFC1FFC00000000
(1430902954.506400) vcan0 009#02E3000000000000
(1430902954.511051) vcan0 008#1F551F5400000000
(1430902954.616464) vcan0 009#02E0000000000000
(1430902954.621074) vcan0 008#1F6B1F6800000000
(1430902954.726435) vcan0 009#02DD000000000000
(1430902954.731073) vcan0 008#201C201C00000000
(1430902954.837014) vcan0 009#02DB000000000000
(1430902954.841623) vcan0 008#1FE71FE400000000
(1430902954.947299) vcan0 009#02D8000000000000
(1430902954.951953) vcan0 008#20A220A000000000
(1430902955.057497) vcan0 009#02D5000000000000
(1430902955.062493) vcan0 008#206C206C00000000
(1430902955.167779) vcan0 009#02D3000000000000
(1430902955.172615) vcan0 008#20AB20A800000000
(1430902955.277933) vcan0 009#02D1000000000000
(1430902955.282729) vcan0 008#208C208C00000000
(1430902955.388031) vcan0 009#02CF000000000000
(1430902955.392872) vcan0 008#2100210000000000
(1430902955.498179) vcan0 009#02CD000000000000
(1430902955.502989) vcan0 008#2140214000000000
(1430902955.608268) vcan0 009#02CB000000000000
(1430902955.613053) vcan0 008#2168216800000000
(1430902955.718307) vcan0 009#02C9000000000000
(1430902955.723117) vcan0 008#2153215000000000
(1430902955.828422) vcan0 009#02C7000000000000
(1430902955.833244) vcan0 008#217D217C00000000
(1430902955.938945) vcan0 009#02C6000000000000
(1430902955.942721) vcan0 008#212B212800000000
(1430902956.047973) vcan0 009#02C4000000000000
(1430902956.052794) vcan0 008#217B217800000000
(1430902956.158111) vcan0 009#02C2000000000000
(1430902956.162915) vcan0 008#218D218C00000000
(1430902956.268214) vcan0 009#02C1000000000000
(1430902956.272969) vcan0 008#2161216000000000
(1430902956.378250) vcan0 009#02BF000000000000
(1430902956.383098) vcan0 008#21BB21B800000000
(1430902956.488447) vcan0 009#02BE000000000000
(1430902956.493285) vcan0 008#2156215400000000
(1430902956.598649) vcan0 009#02BD000000000000
(1430902956.603442) vcan0 008#21DD21DC00000000
(1430902956.709255) vcan0 009#02BC000000000000
(1430902956.712718) vcan0 008#217B217800000000
(1430902956.818383) vcan0 009#02BB000000000000
(1430902956.823106) vcan0 008#2197219400000000
(1430902956.928375) vcan0 009#02BA000000000000
(1430902956.933279) vcan0 008#21F321F000000000
(1430902957.038537) vcan0 009#02B9000000000000
(1430902957.043805) vcan0 008#22AA22A800000000
(1430902957.149468) vcan0 009#02B8000000000000
(1430902957.154322) vcan0 008#2212221000000000
(1430902957.259632) vcan0 009#02B7000000000000
(1430902957.262730) vcan0 008#218B218800000000
(1430902957.368655) vcan0 009#02B6000000000000
(1430902957.372618) vcan0 008#210C210C00000000
(1430902957.478500) vcan0 009#02B5000000000000
(1430902957.483641) vcan0 008#216B216800000000
(1430902957.588883) vcan0 009#02B5000000000000
(1430902957.593338) vcan0 008#220B220800000000
(1430902957.698905) vcan0 009#02B5000000000000
(1430902957.702722) vcan0 008#2236223400000000
(1430902957.808010) vcan0 009#02B4000000000000
(1430902957.812814) vcan0 008#229F229C00000000
(1430902957.918081) vcan0 009#02B3000000000000
(1430902957.923059) vcan0 008#22FC22FC00000000
(1430902958.028334) vcan0 009#02B3000000000000
(1430902958.033145) vcan0 008#239B239800000000
(1430902958.138446) vcan0 009#02B2000000000000
(1430902958.143790) vcan0 008#23FE23FC00000000
(1430902958.249491) vcan0 009#02B2000000000000
(1430902958.254212) vcan0 008#2398239800000000
(1430902958.359496) vcan0 009#02B1000000000000
(1430902958.364374) vcan0 008#23A623A400000000
(1430902958.469703) vcan0 009#02B1000000000000
(1430902958.474569) vcan0 008#2427242400000000
(1430902958.579865) vcan0 009#02B0000000000000
(1430902958.584727) vcan0 008#247F247C00000000
(1430902958.690092) vcan0 009#02AF000000000000
(1430902958.692685) vcan0 008#24EB24E800000000
(1430902958.800494) vcan0 009#02AF000000000000
(1430902958.805333) vcan0 008#25981B5C00000000
(1430902958.910663) vcan0 009#02AF000000000000
(1430902958.915492) vcan0 008#26271BC400000000
(1430902959.020760) vcan0 009#02AE000000000000
(1430902959.025864) vcan0 008#25B01B7000000000
(1430902959.131758) vcan0 009#02AE000000000000
(1430902959.136425) vcan0 008#259F1B6000000000
(1430902959.242806) vcan0 009#02AD000000000000
(1430902959.247232) vcan0 008#256D1B3C00000000
(1430902959.353066) vcan0 009#02AD000000000000
(1430902959.357640) vcan0 008#25DA1B8C00000000
(1430902959.463151) vcan0 009#02AD000000000000
(1430902959.467730) vcan0 008#2513251000000000
(1430902959.573209) vcan0 009#02AC000000000000
(1430902959.577823) vcan0 008#24EA24E800000000
(1430902959.683309) vcan0 009#02AC000000000000
(1430902959.687933) vcan0 008#243B243800000000
(1430902959.793493) vcan0 009#02AC000000000000
(1430902959.798083) vcan0 008#24A924A800000000
(1430902959.903545) vcan0 009#02AB000000000000
(1430902959.908143) vcan0 008#25221B0800000000
(1430902960.013642) vcan0 009#02AB000000000000
(1430902960.018590) vcan0 008#24DE24DC00000000
(1430902960.124023) vcan0 009#02AB000000000000
(1430902960.128644) vcan0 008#24AB24A800000000
(1430902960.234044) vcan0 009#02AB000000000000
(1430902960.238650) vcan0 008#24FE24FC00000000
(1430902960.344147) vcan0 009#02AB000000000000
(1430902960.348797) vcan0 008#25611B3400000000
(1430902960.454251) vcan0 009#02AA000000000000
(1430902960.459276) vcan0 008#25801B4C00000000
(1430902960.564711) vcan0 009#02AB000000000000
(1430902960.569330) vcan0 008#25DE1B9000000000
(1430902960.674750) vcan0 009#02AA000000000000
(1430902960.679394) vcan0 008#25DD1B9000000000
(1430902960.784993) vcan0 009#02AA000000000000
(1430902960.789642) vcan0 008#25D51B8800000000
(1430902960.895196) vcan0 009#02AA000000000000
(1430902960.899830) vcan0 008#25DE1B9000000000
(1430902961.005295) vcan0 009#02AA000000000000
(1430902961.009947) vcan0 008#25E41B9400000000
(1430902961.115400) vcan0 009#02AA000000000000
(1430902961.120047) vcan0 008#25721B4000000000
(1430902961.225485) vcan0 009#02A9000000000000
(1430902961.230148) vcan0 008#26111BB400000000
(1430902961.335606) vcan0 009#02AA000000000000
(1430902961.340225) vcan0 008#262F1BCC00000000
(1430902961.446064) vcan0 009#02A9000000000000
(1430902961.451223) vcan0 008#26461BDC00000000
(1430902961.556618) vcan0 009#02A9000000000000
(1430902961.560043) vcan0 008#268A1C0C00000000
(1430902961.665933) vcan0 009#02A9000000000000
(1430902961.670477) vcan0 008#26DC1C4800000000
(1430902961.775903) vcan0 009#02A9000000000000
(1430902961.780550) vcan0 008#274C1C9800000000
(1430902961.886018) vcan0 009#02A9000000000000
(1430902961.890616) vcan0 008#277F1CC000000000
(1430902961.996099) vcan0 009#02A9000000000000
(1430902962.000751) vcan0 008#27EE1D1000000000
(1430902962.106277) vcan0 009#02A9000000000000
(1430902962.110941) vcan0 008#283B1D4800000000
(1430902962.216398) vcan0 009#02A9000000000000
(1430902962.221048) vcan0 008#27FD1D1C00000000
(1430902962.326506) vcan0 009#02A9000000000000
(1430902962.331151) vcan0 008#285F1D6000000000
(1430902962.436539) vcan0 009#02A8000000000000
(1430902962.441103) vcan0 008#28401D4C00000000
(1430902962.547310) vcan0 009#02A8000000000000
(1430902962.551825) vcan0 008#283F1D4C00000000
(1430902962.657272) vcan0 009#02A8000000000000
(1430902962.661831) vcan0 008#28C21DAC00000000
(1430902962.767717) vcan0 009#02A7000000000000
(1430902962.772540) vcan0 008#29481E0C00000000
(1430902962.877860) vcan0 009#02A7000000000000
(1430902962.882666) vcan0 008#28D61DB800000000
(1430902962.987960) vcan0 009#02A7000000000000
(1430902962.992801) vcan0 008#28F11DCC00000000
(1430902963.098115) vcan0 009#02A7000000000000
(1430902963.102907) vcan0 008#29A91E5400000000
(1430902963.208497) vcan0 009#02A7000000000000
(1430902963.213300) vcan0 008#29BF1E6400000000
(1430902963.318635) vcan0 009#02A7000000000000
(1430902963.323443) vcan0 008#29C11E6400000000
(1430902963.428705) vcan0 009#02A7000000000000
(1430902963.433514) vcan0 008#29E91E8000000000
(1430902963.538845) vcan0 009#02A7000000000000
(1430902963.543654) vcan0 008#29CB1E6C00000000
(1430902963.649054) vcan0 009#02A7000000000000
(1430902963.653874) vcan0 008#29BB1E6000000000
(1430902963.759172) vcan0 009#02A6000000000000
(1430902963.763996) vcan0 008#2A981F0000000000
(1430902963.869675) vcan0 009#02A6000000000000
(1430902963.874486) vcan0 008#2A741EE800000000
(1430902963.979774) vcan0 009#02A6000000000000
(1430902963.984623) vcan0 008#2A761EE800000000
(1430902964.089916) vcan0 009#02A6000000000000
(1430902964.094756) vcan0 008#2A041E9400000000
(1430902964.200026) vcan0 009#02A7000000000000
(1430902964.204877) vcan0 008#29F81E8C00000000
(1430902964.310200) vcan0 009#02A7000000000000
(1430902964.315048) vcan0 008#2A681EDC00000000
(1430902964.420393) vcan0 009#02A6000000000000
(1430902964.425231) vcan0 008#2A851EF400000000
(1430902964.530512) vcan0 009#02A7000000000000
(1430902964.535366) vcan0 008#2B451F8000000000
(1430902964.640628) vcan0 009#02A7000000000000
(1430902964.645737) vcan0 008#2ABB1F1C00000000
(1430902964.750993) vcan0 009#02A6000000000000
(1430902964.755778) vcan0 008#2A7A1EEC00000000
(1430902964.861037) vcan0 009#02A5000000000000
(1430902964.865857) vcan0 008#2A391EBC00000000
(1430902964.971169) vcan0 009#02A5000000000000
(1430902964.976377) vcan0 008#2A331EB800000000
(1430902965.081644) vcan0 009#02A6000000000000
(1430902965.086457) vcan0 008#2B4A1F8400000000
(1430902965.191717) vcan0 009#02A7000000000000
(1430902965.196511) vcan0 008#2B471F8000000000
(1430902965.301985) vcan0 009#02A7000000000000
(1430902965.306834) vcan0 008#2A4F1ECC00000000
(1430902965.412242) vcan0 009#02A7000000000000
(1430902965.416851) vcan0 008#2A741EE800000000
(1430902965.522269) vcan0 009#02A7000000000000
(1430902965.526884) vcan0 008#2AA11F0800000000
(1430902965.632482) vcan0 009#02A6000000000000
(1430902965.637058) vcan0 008#2ACD1F2800000000
(1430902965.742511) vcan0 009#02A6000000000000
(1430902965.747132) vcan0 008#2AF31F4400000000
(1430902965.852562) vcan0 009#02A6000000000000
(1430902965.857172) vcan0 008#2A8B1EF800000000
(1430902965.962546) vcan0 009#02A6000000000000
(1430902965.967159) vcan0 008#2A2B1EB000000000
(1430902966.072653) vcan0 009#02A6000000000000
(1430902966.077613) vcan0 008#2A441EC400000000
(1430902966.183110) vcan0 009#02A6000000000000
(1430902966.187708) vcan0 008#29CA1E6C00000000
(1430902966.293788) vcan0 009#02A6000000000000
(1430902966.298414) vcan0 008#2A471EC400000000
(1430902966.403856) vcan0 009#02A5000000000000
(1430902966.408472) vcan0 008#2A271EB000000000
(1430902966.513921) vcan0 009#02A5000000000000
(1430902966.518546) vcan0 008#29F11E8800000000
(1430902966.623937) vcan0 009#02A6000000000000
(1430902966.628548) vcan0 008#28FE1DD800000000
(1430902966.734340) vcan0 009#02A6000000000000
(1430902966.738951) vcan0 008#294A1E0C00000000
(1430902966.844429) vcan0 009#02A6000000000000
(1430902966.849094) vcan0 008#291A1DEC00000000
(1430902966.954517) vcan0 009#02A6000000000000
(1430902966.959171) vcan0 008#28D51DB800000000
(1430902967.064753) vcan0 009#02A5000000000000
(1430902967.069436) vcan0 008#285E1D6000000000
(1430902967.174875) vcan0 009#02A5000000000000
(1430902967.179503) vcan0 008#28951D8800000000
(1430902967.285316) vcan0 009#02A5000000000000
(1430902967.290017) vcan0 008#289A1D8C00000000
(1430902967.395575) vcan0 009#02A5000000000000
(1430902967.400227) vcan0 008#28E01DC000000000
(1430902967.505707) vcan0 009#02A5000000000000
(1430902967.510622) vcan0 008#28F31DCC00000000
(1430902967.617210) vcan0 009#02A5000000000000
(1430902967.621796) vcan0 008#28991D8C00000000
(1430902967.727197) vcan0 009#02A5000000000000
(1430902967.731824) vcan0 008#29301DFC00000000
(1430902967.837317) vcan0 009#02A5000000000000
(1430902967.841967) vcan0 008#28781D7400000000
(1430902967.947455) vcan0 009#02A5000000000000
(1430902967.952259) vcan0 008#28BC1DA400000000
(1430902968.057583) vcan0 009#02A5000000000000
(1430902968.062884) vcan0 008#28491D5400000000
(1430902968.168219) vcan0 009#02A4000000000000
(1430902968.172982) vcan0 008#28491D5400000000
(1430902968.278312) vcan0 009#02A4000000000000
(1430902968.283139) vcan0 008#276F1CB400000000
(1430902968.388886) vcan0 009#02A4000000000000
(1430902968.392731) vcan0 008#275B1CA400000000
(1430902968.497989) vcan0 009#02A5000000000000
(1430902968.502760) vcan0 008#279F1CD800000000
(1430902968.608398) vcan0 009#02A5000000000000
(1430902968.613170) vcan0 008#27991CD000000000
(1430902968.720392) vcan0 009#02A5000000000000
(1430902968.725393) vcan0 008#273A1C8C00000000
(1430902968.830669) vcan0 009#02A5000000000000
(1430902968.835448) vcan0 008#279F1CD800000000
(1430902968.940766) vcan0 009#02A5000000000000
(1430902968.945602) vcan0 008#27941CD000000000
(1430902969.050883) vcan0 009#02A4000000000000
(1430902969.055700) vcan0 008#27C71CF400000000
(1430902969.161263) vcan0 009#02A5000000000000
(1430902969.166038) vcan0 008#27561CA000000000
(1430902969.271309) vcan0 009#02A5000000000000
(1430902969.276118) vcan0 008#27751CB800000000
(1430902969.381461) vcan0 009#02A5000000000000
(1430902969.386265) vcan0 008#27DD1D0400000000
(1430902969.491979) vcan0 009#02A5000000000000
(1430902969.496772) vcan0 008#27911CCC00000000
(1430902969.602052) vcan0 009#02A6000000000000
(1430902969.606851) vcan0 008#27B31CE400000000
(1430902969.712383) vcan0 009#02A5000000000000
(1430902969.717006) vcan0 008#27AE1CE000000000
(1430902969.822434) vcan0 009#02A5000000000000
(1430902969.827041) vcan0 008#27F21D1400000000
(1430902969.932432) vcan0 009#02A6000000000000
(1430902969.937061) vcan0 008#278C1CC800000000
(1430902970.042619) vcan0 009#02A6000000000000
(1430902970.047228) vcan0 008#26B81C3000000000
(1430902970.153471) vcan0 009#02A6000000000000
(1430902970.157882) vcan0 008#26A81C2400000000
(1430902970.263361) vcan0 009#02A6000000000000
(1430902970.267966) vcan0 008#266C1BF800000000
(1430902970.373420) vcan0 009#02A6000000000000
(1430902970.378033) vcan0 008#27091C6800000000
(1430902970.483459) vcan0 009#02A6000000000000
(1430902970.488059) vcan0 008#268B1C0C00000000
(1430902970.593914) vcan0 009#02A6000000000000
(1430902970.598499) vcan0 008#26251BC400000000
(1430902970.703937) vcan0 009#02A6000000000000
(1430902970.708538) vcan0 008#26501BE400000000
(1430902970.813956) vcan0 009#02A6000000000000
(1430902970.818560) vcan0 008#26591BE800000000
(1430902970.923964) vcan0 009#02A7000000000000
(1430902970.928587) vcan0 008#26741BFC00000000
(1430902971.034061) vcan0 009#02A6000000000000
(1430902971.039883) vcan0 008#26191BBC00000000
(1430902971.145391) vcan0 009#02A7000000000000
(1430902971.150030) vcan0 008#26B11C2800000000
(1430902971.255624) vcan0 009#02A6000000000000
(1430902971.260272) vcan0 008#270D1C6C00000000
(1430902971.365699) vcan0 009#02A6000000000000
(1430902971.370320) vcan0 008#276C1CB000000000
(1430902971.475789) vcan0 009#02A7000000000000
(1430902971.480418) vcan0 008#279B1CD400000000
(1430902971.586031) vcan0 009#02A7000000000000
(1430902971.590680) vcan0 008#279C1CD400000000
(1430902971.696046) vcan0 009#02A7000000000000
(1430902971.701117) vcan0 008#27321C8800000000
(1430902971.806588) vcan0 009#02A7000000000000
(1430902971.811246) vcan0 008#27E81D0C00000000
(1430902971.916594) vcan0 009#02A7000000000000
(1430902971.921235) vcan0 008#27451C9400000000
(1430902972.026671) vcan0 009#02A7000000000000
(1430902972.031342) vcan0 008#26B71C2C00000000
(1430902972.137180) vcan0 009#02A8000000000000
(1430902972.141720) vcan0 008#26B51C2C00000000
(1430902972.247226) vcan0 009#02A7000000000000
(1430902972.251908) vcan0 008#26771C0000000000
(1430902972.357392) vcan0 009#02A8000000000000
(1430902972.361963) vcan0 008#26DD1C4800000000
(1430902972.467418) vcan0 009#02A8000000000000
(1430902972.471965) vcan0 008#26761C0000000000
(1430902972.577789) vcan0 009#02A8000000000000
(1430902972.582496) vcan0 008#26571BE800000000
(1430902972.687824) vcan0 009#02A8000000000000
(1430902972.692521) vcan0 008#26171BB800000000
(1430902972.797778) vcan0 009#02A8000000000000
(1430902972.802815) vcan0 008#261D1BBC00000000
(1430902972.908153) vcan0 009#02A8000000000000
(1430902972.912913) vcan0 008#26291BC800000000
(1430902973.018212) vcan0 009#02A8000000000000
(1430902973.022951) vcan0 008#26021BA800000000
(1430902973.128329) vcan0 009#02A8000000000000
(1430902973.133077) vcan0 008#260C1BB000000000
(1430902973.238363) vcan0 009#02A8000000000000
(1430902973.243194) vcan0 008#25AF1B6C00000000
(1430902973.348584) vcan0 009#02A8000000000000
(1430902973.353343) vcan0 008#24F624F400000000
(1430902973.458684) vcan0 009#02A8000000000000
(1430902973.463382) vcan0 008#252A1B0C00000000
(1430902973.568693) vcan0 009#02A8000000000000
(1430902973.573419) vcan0 008#25481B2400000000
(1430902973.678716) vcan0 009#02A8000000000000
(1430902973.683433) vcan0 008#24E524E400000000
(1430902973.788729) vcan0 009#02A8000000000000
(1430902973.793731) vcan0 008#24F724F400000000
(1430902973.898994) vcan0 009#02A8000000000000
(1430902973.902750) vcan0 008#24D424D400000000
(1430902974.008791) vcan0 009#02A7000000000000
(1430902974.012626) vcan0 008#24F824F800000000
(1430902974.117944) vcan0 009#02A7000000000000
(1430902974.122835) vcan0 008#24C524C400000000
(1430902974.228134) vcan0 009#02A7000000000000
(1430902974.233095) vcan0 008#24F224F000000000
(1430902974.338425) vcan0 009#02A7000000000000
(1430902974.343285) vcan0 008#24FC24FC00000000
(1430902974.448557) vcan0 009#02A8000000000000
(1430902974.453329) vcan0 008#255B1B3000000000
(1430902974.558646) vcan0 009#02A8000000000000
(1430902974.563365) vcan0 008#24CB24C800000000
(1430902974.668975) vcan0 009#02A7000000000000
(1430902974.672732) vcan0 008#2451245000000000
(1430902974.778110) vcan0 009#02A7000000000000
(1430902974.782970) vcan0 008#23D023D000000000
(1430902974.888309) vcan0 009#02A7000000000000
(1430902974.893127) vcan0 008#2317231400000000
(1430902974.998388) vcan0 009#02A7000000000000
(1430902975.003224) vcan0 008#22DF22DC00000000
(1430902975.108494) vcan0 009#02A7000000000000
(1430902975.112421) vcan0 008#2255225400000000
(1430902975.217705) vcan0 009#02A7000000000000
(1430902975.222756) vcan0 008#228C228C00000000
(1430902975.328183) vcan0 009#02A7000000000000
(1430902975.333147) vcan0 008#2223222000000000
(1430902975.438460) vcan0 009#02A7000000000000
(1430902975.443320) vcan0 008#2240224000000000
(1430902975.548920) vcan0 009#02A7000000000000
(1430902975.552769) vcan0 008#220B220800000000
(1430902975.657993) vcan0 009#02A7000000000000
(1430902975.662824) vcan0 008#21F521F400000000
(1430902975.768089) vcan0 009#02A7000000000000
(1430902975.773308) vcan0 008#220A220800000000
(1430902975.879079) vcan0 009#02A7000000000000
(1430902975.883901) vcan0 008#223E223C00000000
(1430902975.989201) vcan0 009#02A8000000000000
(1430902975.993922) vcan0 008#2268226800000000
(1430902976.099200) vcan0 009#02A7000000000000
(1430902976.104045) vcan0 008#2193219000000000
(1430902976.209351) vcan0 009#02A7000000000000
(1430902976.214478) vcan0 008#20F320F000000000
(1430902976.320184) vcan0 009#02A7000000000000
(1430902976.324988) vcan0 008#206E206C00000000
(1430902976.430292) vcan0 009#02A7000000000000
(1430902976.435172) vcan0 008#2008200800000000
(1430902976.540474) vcan0 009#02A7000000000000
(1430902976.545339) vcan0 008#202F202C00000000
(1430902976.650672) vcan0 009#02A7000000000000
(1430902976.655507) vcan0 008#2038203800000000
(1430902976.760804) vcan0 009#02A7000000000000
(1430902976.765630) vcan0 008#207D207C00000000
(1430902976.870916) vcan0 009#02A7000000000000
(1430902976.875719) vcan0 008#2050205000000000
(1430902976.980984) vcan0 009#02A7000000000000
(1430902976.985932) vcan0 008#205F205C00000000
(1430902977.091247) vcan0 009#02A7000000000000
(1430902977.096097) vcan0 008#2016201400000000
(1430902977.201367) vcan0 009#02A7000000000000
(1430902977.206155) vcan0 008#1FBF1FBC00000000
(1430902977.311486) vcan0 009#02A7000000000000
(1430902977.316302) vcan0 008#1F9F1F9C00000000
(1430902977.421638) vcan0 009#02A7000000000000
(1430902977.426684) vcan0 008#1F701F7000000000
(1430902977.531981) vcan0 009#02A7000000000000
(1430902977.536815) vcan0 008#1F2F1F2C00000000
(1430902977.642349) vcan0 009#02A7000000000000
(1430902977.646948) vcan0 008#1F181F1800000000
(1430902977.752382) vcan0 009#02A7000000000000
(1430902977.757008) vcan0 008#1E7E1E7C00000000
(1430902977.862413) vcan0 009#02A7000000000000
(1430902977.867049) vcan0 008#1E781E7800000000
(1430902977.972597) vcan0 009#02A7000000000000
(1430902977.977195) vcan0 008#1E751E7400000000
(1430902978.082669) vcan0 009#02A7000000000000
(1430902978.087334) vcan0 008#1E721E7000000000
(1430902978.193137) vcan0 009#02A7000000000000
(1430902978.197746) vcan0 008#1DF41DF400000000
(1430902978.303214) vcan0 009#02A7000000000000
(1430902978.307853) vcan0 008#1E0D1E0C00000000
(1430902978.413265) vcan0 009#02A7000000000000
(1430902978.417866) vcan0 008#1E1F1E1C00000000
(1430902978.523311) vcan0 009#02A7000000000000
(1430902978.527126) vcan0 008#1E4B1E4800000000
(1430902978.632536) vcan0 009#02A7000000000000
(1430902978.637164) vcan0 008#1F211F2000000000
(1430902978.742747) vcan0 009#02A8000000000000
(1430902978.747322) vcan0 008#1F0E1F0C00000000
(1430902978.852810) vcan0 009#02A9000000000000
(1430902978.857433) vcan0 008#1E281E2800000000
(1430902978.962850) vcan0 009#02A8000000000000
(1430902978.967390) vcan0 008#1DD21DD000000000
(1430902979.072829) vcan0 009#02A9000000000000
(1430902979.077466) vcan0 008#1D9A1D9800000000
(1430902979.182943) vcan0 009#02A9000000000000
(1430902979.187569) vcan0 008#1DD71DD400000000
(1430902979.293053) vcan0 009#02A9000000000000
(1430902979.297688) vcan0 008#1DF41DF400000000
(1430902979.403181) vcan0 009#02A9000000000000
(1430902979.408124) vcan0 008#1E5A1E5800000000
(1430902979.513671) vcan0 009#02A9000000000000
(1430902979.518245) vcan0 008#1EC91EC800000000
(1430902979.623669) vcan0 009#02A9000000000000
(1430902979.628258) vcan0 008#1EB01EB000000000
(1430902979.734462) vcan0 009#02A8000000000000
(1430902979.738977) vcan0 008#1E411E4000000000
(1430902979.845203) vcan0 009#02A9000000000000
(1430902979.849753) vcan0 008#1E511E5000000000
(1430902979.955253) vcan0 009#02A8000000000000
(1430902979.959820) vcan0 008#1D611D6000000000
(1430902980.065817) vcan0 009#02A8000000000000
(1430902980.070427) vcan0 008#1D021D0000000000
(1430902980.175857) vcan0 009#02A7000000000000
(1430902980.180539) vcan0 008#1CB01CB000000000
(1430902980.285965) vcan0 009#02A8000000000000
(1430902980.290526) vcan0 008#1CAE1CAC00000000
(1430902980.395932) vcan0 009#02A8000000000000
(1430902980.400500) vcan0 008#1D181D1800000000
(1430902980.505912) vcan0 009#02A8000000000000
(1430902980.510784) vcan0 008#1CBB1CB800000000
(1430902980.616281) vcan0 009#02A8000000000000
(1430902980.621338) vcan0 008#1C291C2800000000
(1430902980.726755) vcan0 009#02A8000000000000
(1430902980.731317) vcan0 008#1BD21BD000000000
(1430902980.837112) vcan0 009#02A8000000000000
(1430902980.841625) vcan0 008#1B6E1B6C00000000
(1430902980.947295) vcan0 009#02A8000000000000
(1430902980.951859) vcan0 008#1BF11BF000000000
(1430902981.057301) vcan0 009#02A8000000000000
(1430902981.061883) vcan0 008#1C1E1C1C00000000
(1430902981.168077) vcan0 009#02A9000000000000
(1430902981.172822) vcan0 008#1C381C3800000000
(1430902981.278139) vcan0 009#02A8000000000000
(1430902981.282886) vcan0 008#1B3E27A800000000
(1430902981.388134) vcan0 009#02A8000000000000
(1430902981.392972) vcan0 008#1B2A278C00000000
(1430902981.498288) vcan0 009#02A8000000000000
(1430902981.503032) vcan0 008#1B20277C00000000
(1430902981.608354) vcan0 009#02A8000000000000
(1430902981.613079) vcan0 008#1A9E26C000000000
(1430902981.718378) vcan0 009#02A8000000000000
(1430902981.723117) vcan0 008#1A1025F000000000
(1430902981.828431) vcan0 009#02A8000000000000
(1430902981.833152) vcan0 008#191B248C00000000
(1430902981.938467) vcan0 009#02A8000000000000
(1430902981.943794) vcan0 008#19CD259000000000
(1430902982.049182) vcan0 009#02A9000000000000
(1430902982.054348) vcan0 008#19B0256800000000
(1430902982.159633) vcan0 009#02A9000000000000
(1430902982.164477) vcan0 008#194A24D000000000
(1430902982.269773) vcan0 009#02A9000000000000
(1430902982.274635) vcan0 008#18DC243000000000
(1430902982.379856) vcan0 009#02A8000000000000
(1430902982.384636) vcan0 008#1850236400000000
(1430902982.489947) vcan0 009#02A8000000000000
(1430902982.494700) vcan0 008#18DD243400000000
(1430902982.600079) vcan0 009#02A8000000000000
(1430902982.604874) vcan0 008#18F4245400000000
(1430902982.710195) vcan0 009#02A8000000000000
(1430902982.714967) vcan0 008#18D8242C00000000
(1430902982.820244) vcan0 009#02A8000000000000
(1430902982.824976) vcan0 008#18F3245400000000
(1430902982.930313) vcan0 009#02A8000000000000
(1430902982.935052) vcan0 008#18FB245C00000000
(1430902983.040304) vcan0 009#02A9000000000000
(1430902983.042650) vcan0 008#189C23D400000000
(1430902983.149498) vcan0 009#02A8000000000000
(1430902983.154104) vcan0 008#1826232800000000
(1430902983.259402) vcan0 009#02A9000000000000
(1430902983.262739) vcan0 008#1818231400000000
(1430902983.368382) vcan0 009#02A9000000000000
(1430902983.373123) vcan0 008#18B223F400000000
(1430902983.478428) vcan0 009#02A8000000000000
(1430902983.483168) vcan0 008#18E3243C00000000
(1430902983.588506) vcan0 009#02A8000000000000
(1430902983.593868) vcan0 008#18D7242800000000
(1430902983.699178) vcan0 009#02A8000000000000
(1430902983.703896) vcan0 008#196624FC00000000
(1430902983.809217) vcan0 009#02A8000000000000
(1430902983.813928) vcan0 008#19B9257400000000
(1430902983.919203) vcan0 009#02A8000000000000
(1430902983.923900) vcan0 008#19EA25BC00000000
(1430902984.029210) vcan0 009#02A8000000000000
(1430902984.033936) vcan0 008#1A0E25F000000000
(1430902984.139177) vcan0 009#02A8000000000000
(1430902984.143917) vcan0 008#1A0425E000000000
(1430902984.249664) vcan0 009#02A8000000000000
(1430902984.254445) vcan0 008#1980252000000000
(1430902984.359733) vcan0 009#02A8000000000000
(1430902984.364468) vcan0 008#195024D800000000
(1430902984.469737) vcan0 009#02A8000000000000
(1430902984.474504) vcan0 008#18C5241000000000
(1430902984.579772) vcan0 009#02A8000000000000
(1430902984.584542) vcan0 008#189723CC00000000
(1430902984.689788) vcan0 009#02A7000000000000
(1430902984.694659) vcan0 008#188723B400000000
(1430902984.799951) vcan0 009#02A8000000000000
(1430902984.804717) vcan0 008#1852236800000000
(1430902984.910026) vcan0 009#02A8000000000000
(1430902984.914813) vcan0 008#187923A000000000
(1430902985.020069) vcan0 009#02A8000000000000
(1430902985.024813) vcan0 008#18ED244800000000
(1430902985.130087) vcan0 009#02A8000000000000
(1430902985.134863) vcan0 008#1924249800000000
(1430902985.240122) vcan0 009#02A8000000000000
(1430902985.244889) vcan0 008#189223C400000000
(1430902985.350184) vcan0 009#02A8000000000000
(1430902985.355353) vcan0 008#18F2245000000000
(1430902985.461178) vcan0 009#02A8000000000000
(1430902985.465921) vcan0 008#193224AC00000000
(1430902985.571235) vcan0 009#02A8000000000000
(1430902985.575974) vcan0 008#18F1245000000000
(1430902985.681235) vcan0 009#02A8000000000000
(1430902985.685957) vcan0 008#1902246800000000
(1430902985.791250) vcan0 009#02A7000000000000
(1430902985.796070) vcan0 008#18CA241800000000
(1430902985.901357) vcan0 009#02A8000000000000
(1430902985.906041) vcan0 008#193324B000000000
(1430902986.011386) vcan0 009#02A8000000000000
(1430902986.016049) vcan0 008#1868238800000000
(1430902986.121328) vcan0 009#02A7000000000000
(1430902986.126214) vcan0 008#187D23A800000000
(1430902986.231520) vcan0 009#02A7000000000000
(1430902986.235414) vcan0 008#17B9228800000000
(1430902986.341315) vcan0 009#02A7000000000000
(1430902986.346023) vcan0 008#17FF22F000000000
(1430902986.451334) vcan0 009#02A7000000000000
(1430902986.456566) vcan0 008#1870239400000000
(1430902986.561847) vcan0 009#02A6000000000000
(1430902986.566659) vcan0 008#189323C800000000
(1430902986.671988) vcan0 009#02A6000000000000
(1430902986.676803) vcan0 008#18BC240400000000
(1430902986.782367) vcan0 009#02A6000000000000
(1430902986.786976) vcan0 008#18BA240000000000
(1430902986.892402) vcan0 009#02A7000000000000
(1430902986.897018) vcan0 008#18F6245400000000
(1430902987.002507) vcan0 009#02A7000000000000
(1430902987.007433) vcan0 008#18FE246400000000
(1430902987.112858) vcan0 009#02A8000000000000
(1430902987.117408) vcan0 008#1972250C00000000
(1430902987.222810) vcan0 009#02A8000000000000
(1430902987.227312) vcan0 008#1989252C00000000
(1430902987.332784) vcan0 009#02A8000000000000
(1430902987.337294) vcan0 008#196824FC00000000
(1430902987.447692) vcan0 009#02A8000000000000
(1430902987.455421) vcan0 007#0000000000000000
(1430902987.456133) vcan0 008#19D725A000000000
(1430902987.561787) vcan0 009#02AB000000000000
(1430902987.562743) vcan0 008#19DA25A400000000
(1430902987.667862) vcan0 009#02AD000000000000
(1430902987.668452) vcan0 008#18F6245800000000
(1430902987.773775) vcan0 009#02B0000000000000
(1430902987.774483) vcan0 008#18EE244C00000000
(1430902987.879505) vcan0 009#02B1000000000000
(1430902987.880086) vcan0 008#18BC240000000000
(1430902987.985281) vcan0 009#02B4000000000000
(1430902987.985858) vcan0 008#17FF22F000000000
(1430902988.090974) vcan0 009#02B6000000000000
(1430902988.091551) vcan0 008#17E122C400000000
(1430902988.196698) vcan0 009#02B8000000000000
(1430902988.197266) vcan0 008#1786224000000000
(1430902988.303227) vcan0 009#02BB000000000000
(1430902988.303799) vcan0 008#17C5229C00000000
(1430902988.408737) vcan0 009#02BD000000000000
(1430902988.409292) vcan0 008#1707218400000000
(1430902988.514424) vcan0 009#02BF000000000000
(1430902988.514989) vcan0 008#1704218000000000
(1430902988.620328) vcan0 009#02C2000000000000
(1430902988.620910) vcan0 008#168920D000000000
(1430902988.726189) vcan0 009#02C5000000000000
(1430902988.726765) vcan0 008#163B205C00000000
(1430902988.831882) vcan0 009#02C7000000000000
(1430902988.832600) vcan0 008#165A208800000000
(1430902988.937731) vcan0 009#02CA000000000000
(1430902988.938294) vcan0 008#167F20C000000000
(1430902989.043625) vcan0 009#02CC000000000000
(1430902989.044346) vcan0 008#166F20A800000000
(1430902989.149363) vcan0 009#02CE000000000000
(1430902989.149944) vcan0 008#169C20E800000000
(1430902989.255136) vcan0 009#02CF000000000000
(1430902989.255710) vcan0 008#16F0216400000000
(1430902989.360988) vcan0 009#02D1000000000000
(1430902989.361720) vcan0 008#174D21EC00000000
(1430902989.466902) vcan0 009#02D3000000000000
(1430902989.467953) vcan0 008#1773222400000000
(1430902989.573126) vcan0 009#02D5000000000000
(1430902989.573842) vcan0 008#17E422C800000000
(1430902989.678801) vcan0 009#02D7000000000000
(1430902989.679396) vcan0 008#1816231000000000
(1430902989.784540) vcan0 009#02D8000000000000
(1430902989.785106) vcan0 008#18A823E400000000
(1430902989.890139) vcan0 009#02DA000000000000
(1430902989.890699) vcan0 008#1831233800000000
(1430902989.995789) vcan0 009#02DC000000000000
(1430902989.996356) vcan0 008#17F622E000000000
(1430902990.101599) vcan0 009#02DE000000000000
(1430902990.102974) vcan0 008#17EE22D800000000
(1430902990.207988) vcan0 009#02E0000000000000
(1430902990.208565) vcan0 008#17AC227400000000
(1430902990.314188) vcan0 009#02E2000000000000
(1430902990.314887) vcan0 008#17BE229000000000
(1430902990.419919) vcan0 009#02E4000000000000
(1430902990.420496) vcan0 008#173E21D400000000
(1430902990.525763) vcan0 009#02E5000000000000
(1430902990.526347) vcan0 008#1703218000000000
(1430902990.631308) vcan0 009#02E7000000000000
(1430902990.631875) vcan0 008#16D5213C00000000
(1430902990.737045) vcan0 009#02E9000000000000
(1430902990.737616) vcan0 008#176B221800000000
(1430902990.842821) vcan0 009#02EB000000000000
(1430902990.843393) vcan0 008#1773222400000000
(1430902990.948358) vcan0 009#02EC000000000000
(1430902990.948917) vcan0 008#168120C400000000
(1430902991.054387) vcan0 009#02ED000000000000
(1430902991.054951) vcan0 008#1646206C00000000
(1430902991.160284) vcan0 009#02EE000000000000
(1430902991.160891) vcan0 008#15CB1FB800000000
(1430902991.266114) vcan0 009#02EF000000000000
(1430902991.266735) vcan0 008#15091EA000000000
(1430902991.371744) vcan0 009#02F1000000000000
(1430902991.372670) vcan0 008#14EA1E7400000000
(1430902991.478057) vcan0 009#02F2000000000000
(1430902991.478619) vcan0 008#14BA1E2C00000000
(1430902991.584176) vcan0 009#02F3000000000000
(1430902991.584944) vcan0 008#15421EF400000000
(1430902991.689940) vcan0 009#02F4000000000000
(1430902991.690531) vcan0 008#156E1F3400000000
(1430902991.795739) vcan0 009#02F5000000000000
(1430902991.796318) vcan0 008#159D1F7800000000
(1430902991.901388) vcan0 009#02F7000000000000
(1430902991.901965) vcan0 008#15251EC800000000
(1430902992.007116) vcan0 009#02F8000000000000
(1430902992.007684) vcan0 008#14D31E5000000000
(1430902992.112985) vcan0 009#02F8000000000000
(1430902992.113706) vcan0 008#14481D8800000000
(1430902992.218643) vcan0 009#02F9000000000000
(1430902992.219222) vcan0 008#13511C2000000000
(1430902992.324424) vcan0 009#02FA000000000000
(1430902992.325001) vcan0 008#132C1BE800000000
(1430902992.430502) vcan0 009#02FC000000000000
(1430902992.431075) vcan0 008#13181BCC00000000
(1430902992.536402) vcan0 009#02FC000000000000
(1430902992.536976) vcan0 008#13651C3C00000000
(1430902992.641971) vcan0 009#02FE000000000000
(1430902992.642704) vcan0 008#12CA1B5C00000000
(1430902992.747645) vcan0 009#02FF000000000000
(1430902992.748205) vcan0 008#133B1C0000000000
(1430902992.853303) vcan0 009#0300000000000000
(1430902992.853905) vcan0 008#12E61B8400000000
(1430902992.958957) vcan0 009#0301000000000000
(1430902992.959535) vcan0 008#12401A9000000000
(1430902993.064830) vcan0 009#0302000000000000
(1430902993.065394) vcan0 008#122C1A7400000000
(1430902993.170420) vcan0 009#0303000000000000
(1430902993.170995) vcan0 008#120D1A4800000000
(1430902993.276408) vcan0 009#0304000000000000
(1430902993.276982) vcan0 008#12721AD800000000
(1430902993.382421) vcan0 009#0305000000000000
(1430902993.383101) vcan0 008#12CC1B5C00000000
(1430902993.487944) vcan0 009#0306000000000000
(1430902993.488498) vcan0 008#12D61B6C00000000
(1430902993.594696) vcan0 009#0307000000000000
(1430902993.595285) vcan0 008#12B41B3C00000000
(1430902993.700588) vcan0 009#0307000000000000
(1430902993.701333) vcan0 008#123A1A8800000000
(1430902993.806390) vcan0 009#0308000000000000
(1430902993.806968) vcan0 008#11F61A2400000000
(1430902993.912643) vcan0 009#0309000000000000
(1430902993.913368) vcan0 008#11C519DC00000000
(1430902994.018319) vcan0 009#030A000000000000
(1430902994.018886) vcan0 008#119D19A400000000
(1430902994.124297) vcan0 009#030B000000000000
(1430902994.124894) vcan0 008#115E194800000000
(1430902994.229955) vcan0 009#030C000000000000
(1430902994.230537) vcan0 008#116C195C00000000
(1430902994.335889) vcan0 009#030D000000000000
(1430902994.336473) vcan0 008#11AA19B800000000
(1430902994.441546) vcan0 009#030D000000000000
(1430902994.442290) vcan0 008#1189198800000000
(1430902994.547687) vcan0 009#030E000000000000
(1430902994.548264) vcan0 008#11D919FC00000000
(1430902994.653824) vcan0 009#030F000000000000
(1430902994.654561) vcan0 008#11EA1A1400000000
(1430902994.760040) vcan0 009#0310000000000000
(1430902994.760621) vcan0 008#11D919FC00000000
(1430902994.865916) vcan0 009#0310000000000000
(1430902994.866497) vcan0 008#11C119D800000000
(1430902994.971551) vcan0 009#0311000000000000
(1430902994.972455) vcan0 008#11B619C800000000
(1430902995.077408) vcan0 009#0312000000000000
(1430902995.077979) vcan0 008#112118F000000000
(1430902995.183362) vcan0 009#0313000000000000
(1430902995.184052) vcan0 008#112218F000000000
(1430902995.289432) vcan0 009#0313000000000000
(1430902995.290142) vcan0 008#110618C800000000
(1430902995.395387) vcan0 009#0314000000000000
(1430902995.395965) vcan0 008#10AA184400000000
(1430902995.501003) vcan0 009#0315000000000000
(1430902995.501578) vcan0 008#108D181800000000
(1430902995.606558) vcan0 009#0315000000000000
(1430902995.607128) vcan0 008#102B178800000000
(1430902995.712435) vcan0 009#0316000000000000
(1430902995.713127) vcan0 008#0FEC172C00000000
(1430902995.818008) vcan0 009#0316000000000000
(1430902995.818578) vcan0 008#0F70167800000000
(1430902995.923744) vcan0 009#0317000000000000
(1430902995.924297) vcan0 008#0F2F161C00000000
(1430902996.029395) vcan0 009#0317000000000000
(1430902996.029998) vcan0 008#0F4B164400000000
(1430902996.135313) vcan0 009#0318000000000000
(1430902996.135901) vcan0 008#0F22160800000000
(1430902996.241027) vcan0 009#0319000000000000
(1430902996.241598) vcan0 008#0ED7159C00000000
(1430902996.346615) vcan0 009#031A000000000000
(1430902996.347181) vcan0 008#0EB1156400000000
(1430902996.452443) vcan0 009#031A000000000000
(1430902996.453155) vcan0 008#0F7A168800000000
(1430902996.558289) vcan0 009#031A000000000000
(1430902996.558884) vcan0 008#0FA216C000000000
(1430902996.664112) vcan0 009#031A000000000000
(1430902996.664691) vcan0 008#0F6E167400000000
(1430902996.769862) vcan0 009#031B000000000000
(1430902996.770438) vcan0 008#0F52164C00000000
(1430902996.875607) vcan0 009#031B000000000000
(1430902996.876187) vcan0 008#0EA2154C00000000
(1430902996.981217) vcan0 009#031C000000000000
(1430902996.981780) vcan0 008#0DF3145000000000
(1430902997.089959) vcan0 009#031C000000000000
(1430902997.090567) vcan0 008#0E2E14A400000000
(1430902997.196116) vcan0 009#031D000000000000
(1430902997.196818) vcan0 008#0E3014A800000000
(1430902997.301736) vcan0 009#031D000000000000
(1430902997.302446) vcan0 008#0E90153400000000
(1430902997.407402) vcan0 009#031E000000000000
(1430902997.407976) vcan0 008#0E23149400000000
(1430902997.513154) vcan0 009#031F000000000000
(1430902997.513849) vcan0 008#0E6314F000000000
(1430902997.618887) vcan0 009#0320000000000000
(1430902997.619503) vcan0 008#0E05146800000000
(1430902997.724704) vcan0 009#0320000000000000
(1430902997.725283) vcan0 008#0E1F149000000000
(1430902997.830275) vcan0 009#0320000000000000
(1430902997.830840) vcan0 008#0DF4145000000000
(1430902997.936095) vcan0 009#0321000000000000
(1430902997.936655) vcan0 008#0D41235C00000000
(1430902998.041922) vcan0 009#0321000000000000
(1430902998.042796) vcan0 008#0D5F23AC00000000
(1430902998.148000) vcan0 009#0321000000000000
(1430902998.148597) vcan0 008#0D42235C00000000
(1430902998.254076) vcan0 009#0322000000000000
(1430902998.254798) vcan0 008#0D1222DC00000000
(1430902998.359762) vcan0 009#0323000000000000
(1430902998.360351) vcan0 008#0D3E235400000000
(1430902998.465607) vcan0 009#0324000000000000
(1430902998.466184) vcan0 008#0CE7226C00000000
(1430902998.572634) vcan0 009#0324000000000000
(1430902998.573366) vcan0 008#0C4D20D000000000
(1430902998.678719) vcan0 009#0325000000000000
(1430902998.679299) vcan0 008#0C10202C00000000
(1430902998.784736) vcan0 009#0326000000000000
(1430902998.785321) vcan0 008#0BC61F6800000000
(1430902998.890417) vcan0 009#0326000000000000
(1430902998.890988) vcan0 008#0C0F202C00000000
(1430902998.996090) vcan0 009#0326000000000000
(1430902998.996644) vcan0 008#0C4A20CC00000000
(1430902999.101641) vcan0 009#0326000000000000
(1430902999.102351) vcan0 008#0BE11FB000000000
(1430902999.207656) vcan0 009#0327000000000000
(1430902999.208259) vcan0 008#0BC61F6800000000
(1430902999.313480) vcan0 009#0327000000000000
(1430902999.314699) vcan0 008#0C38209800000000
(1430902999.419766) vcan0 009#0327000000000000
(1430902999.420334) vcan0 008#0B8A1EC800000000
(1430902999.525502) vcan0 009#0328000000000000
(1430902999.526066) vcan0 008#0AE01D0400000000
(1430902999.631075) vcan0 009#0328000000000000
(1430902999.631644) vcan0 008#0AC91CC800000000
(1430902999.736792) vcan0 009#0328000000000000
(1430902999.737353) vcan0 008#0A0D1AD000000000
(1430902999.842402) vcan0 009#0329000000000000
(1430902999.842965) vcan0 008#09D61A3C00000000
(1430902999.947971) vcan0 009#0329000000000000
(1430902999.948537) vcan0 008#0990198400000000
(1430903000.053925) vcan0 009#0329000000000000
(1430903000.054653) vcan0 008#09B719E800000000
(1430903000.159725) vcan0 009#0329000000000000
(1430903000.160318) vcan0 008#095218DC00000000
(1430903000.265576) vcan0 009#0329000000000000
(1430903000.266138) vcan0 008#0962190800000000
(1430903000.371199) vcan0 009#0329000000000000
(1430903000.371784) vcan0 008#09C11A0400000000
(1430903000.476969) vcan0 009#0329000000000000
(1430903000.477540) vcan0 008#098C197800000000
(1430903000.582699) vcan0 009#0329000000000000
(1430903000.583272) vcan0 008#099B19A000000000
(1430903000.688307) vcan0 009#032A000000000000
(1430903000.688881) vcan0 008#091A184800000000
(1430903000.794088) vcan0 009#032A000000000000
(1430903000.794822) vcan0 008#08ED17D000000000
(1430903000.899685) vcan0 009#032A000000000000
(1430903000.900253) vcan0 008#080D157800000000
(1430903001.005591) vcan0 009#032A000000000000
(1430903001.006172) vcan0 008#07F6153C00000000
(1430903001.111687) vcan0 009#032A000000000000
(1430903001.112571) vcan0 008#082515BC00000000
(1430903001.217542) vcan0 009#032B000000000000
(1430903001.218103) vcan0 008#0858164000000000
(1430903001.323283) vcan0 009#032B000000000000
(1430903001.323849) vcan0 008#082615BC00000000
(1430903001.428849) vcan0 009#032B000000000000
(1430903001.429404) vcan0 008#079D145000000000
(1430903001.534695) vcan0 009#032B000000000000
(1430903001.535275) vcan0 008#0781140400000000
(1430903001.640323) vcan0 009#032B000000000000
(1430903001.640904) vcan0 008#079E145000000000
(1430903001.745982) vcan0 009#032C000000000000
(1430903001.746554) vcan0 008#078A141C00000000
(1430903001.851492) vcan0 009#032C000000000000
(1430903001.852049) vcan0 008#070C12CC00000000
(1430903001.957319) vcan0 009#032C000000000000
(1430903001.957891) vcan0 008#06CC122400000000
(1430903002.063672) vcan0 009#032D000000000000
(1430903002.064392) vcan0 008#0669111C00000000
(1430903002.169385) vcan0 009#032D000000000000
(1430903002.169952) vcan0 008#0696119000000000
(1430903002.275270) vcan0 009#032E000000000000
(1430903002.275842) vcan0 008#06B611E400000000
(1430903002.380841) vcan0 009#032E000000000000
(1430903002.381445) vcan0 008#064F10D400000000
(1430903002.486676) vcan0 009#032E000000000000
(1430903002.487263) vcan0 008#05862C3400000000
(1430903002.592586) vcan0 009#032E000000000000
(1430903002.593299) vcan0 008#04FC27E400000000
(1430903002.698243) vcan0 009#032E000000000000
(1430903002.698818) vcan0 008#04C9264C00000000
(1430903002.803990) vcan0 009#032E000000000000
(1430903002.804568) vcan0 008#04D726BC00000000
(1430903002.909573) vcan0 009#032E000000000000
(1430903002.910145) vcan0 008#051928CC00000000
(1430903003.015428) vcan0 009#032E000000000000
(1430903003.015998) vcan0 008#04AC256400000000
(1430903003.121306) vcan0 009#032E000000000000
(1430903003.121873) vcan0 008#04BC25E000000000
(1430903003.227107) vcan0 009#032E000000000000
(1430903003.227697) vcan0 008#0480240400000000
(1430903003.333063) vcan0 009#032E000000000000
(1430903003.333793) vcan0 008#0420210400000000
(1430903003.438753) vcan0 009#032E000000000000
(1430903003.439321) vcan0 008#040F207C00000000
(1430903003.544502) vcan0 009#032E000000000000
(1430903003.545079) vcan0 008#038B1C5C00000000
(1430903003.650074) vcan0 009#032D000000000000
(1430903003.650644) vcan0 008#03A61D3400000000
(1430903003.755712) vcan0 009#032E000000000000
(1430903003.756281) vcan0 008#02DC16E000000000
(1430903003.861318) vcan0 009#032E000000000000
(1430903003.861893) vcan0 008#0291148C00000000
(1430903003.967592) vcan0 009#032D000000000000
(1430903003.968202) vcan0 008#02CA165400000000
(1430903004.073500) vcan0 009#032E000000000000
(1430903004.074212) vcan0 008#02B915C800000000
(1430903004.179096) vcan0 009#032E000000000000
(1430903004.179665) vcan0 008#0306183000000000
(1430903004.284971) vcan0 009#032E000000000000
(1430903004.285561) vcan0 008#02C5162800000000
(1430903004.390805) vcan0 009#032E000000000000
(1430903004.391391) vcan0 008#02F0178400000000
(1430903004.496681) vcan0 009#032D000000000000
(1430903004.497268) vcan0 008#034C1A6000000000
(1430903004.602489) vcan0 009#032E000000000000
(1430903004.603074) vcan0 008#02C2161000000000
(1430903004.708028) vcan0 009#032E000000000000
(1430903004.708599) vcan0 008#02E9174800000000
(1430903004.813981) vcan0 009#032E000000000000
(1430903004.814712) vcan0 008#02DA16D000000000
(1430903004.919716) vcan0 009#032E000000000000
(1430903004.920288) vcan0 008#032A195000000000
(1430903005.025950) vcan0 009#032E000000000000
(1430903005.026665) vcan0 008#0300180000000000
(1430903005.131858) vcan0 009#032F000000000000
(1430903005.132743) vcan0 008#02F917CC00000000
(1430903005.237762) vcan0 009#032F000000000000
(1430903005.238336) vcan0 008#02EC176400000000
(1430903005.343707) vcan0 009#032F000000000000
(1430903005.344428) vcan0 008#0241120C00000000
(1430903005.449522) vcan0 009#0330000000000000
(1430903005.450096) vcan0 008#01DF0FA000000000
(1430903005.556320) vcan0 009#032F000000000000
(1430903005.556907) vcan0 008#019C0FA000000000
(1430903005.661946) vcan0 009#0330000000000000
(1430903005.662758) vcan0 008#01590FA000000000
(1430903005.767641) vcan0 009#0330000000000000
(1430903005.768204) vcan0 008#00CF0FA000000000
(1430903005.873297) vcan0 009#0330000000000000
(1430903005.873856) vcan0 008#00610FA000000000
(1430903005.978841) vcan0 009#0331000000000000
(1430903005.979401) vcan0 008#00370FA000000000
(1430903006.084650) vcan0 009#0331000000000000
(1430903006.085227) vcan0 008#00860FA000000000
(1430903006.190210) vcan0 009#0331000000000000
(1430903006.190779) vcan0 008#00FE0FA000000000
(1430903006.296148) vcan0 009#0331000000000000
(1430903006.296717) vcan0 008#018B0FA000000000
(1430903006.401819) vcan0 009#0331000000000000
(1430903006.402681) vcan0 008#018D0FA000000000
(1430903006.507558) vcan0 009#0332000000000000
(1430903006.508120) vcan0 008#01C80FA000000000
(1430903006.613268) vcan0 009#0332000000000000
(1430903006.613842) vcan0 008#01310FA000000000
(1430903006.719033) vcan0 009#0332000000000000
(1430903006.719626) vcan0 008#00F80FA000000000
(1430903006.824835) vcan0 009#0332000000000000
(1430903006.825400) vcan0 008#014C0FA000000000
(1430903006.930386) vcan0 009#0332000000000000
(1430903006.930954) vcan0 008#01C60FA000000000
(1430903007.036303) vcan0 009#0332000000000000
(1430903007.036871) vcan0 008#01D30FA000000000
(1430903007.141900) vcan0 009#0331000000000000
(1430903007.142775) vcan0 008#01E80FA000000000
(1430903007.247745) vcan0 009#0331000000000000
(1430903007.248307) vcan0 008#01640FA000000000
(1430903007.353569) vcan0 009#0332000000000000
(1430903007.354299) vcan0 008#01A80FA000000000
(1430903007.459569) vcan0 009#0332000000000000
(1430903007.460247) vcan0 008#01950FA000000000
(1430903007.565544) vcan0 009#0332000000000000
(1430903007.566146) vcan0 008#01F90FCC00000000
(1430903007.671217) vcan0 009#0333000000000000
(1430903007.671796) vcan0 008#01B20FA000000000
(1430903007.776980) vcan0 009#0333000000000000
(1430903007.777553) vcan0 008#01A80FA000000000
(1430903007.882727) vcan0 009#0333000000000000
(1430903007.883301) vcan0 008#01E90FA000000000
(1430903007.988252) vcan0 009#0333000000000000
(1430903007.988818) vcan0 008#01510FA000000000
(1430903008.094060) vcan0 009#0333000000000000
(1430903008.094781) vcan0 008#01AE0FA000000000
(1430903008.199634) vcan0 009#0333000000000000
(1430903008.200197) vcan0 008#0213109800000000
(1430903008.305476) vcan0 009#0333000000000000
(1430903008.306059) vcan0 008#029A14D400000000
(1430903008.411141) vcan0 009#0333000000000000
(1430903008.411729) vcan0 008#025F12F800000000
(1430903008.516868) vcan0 009#0333000000000000
(1430903008.518099) vcan0 008#02F917CC00000000
(1430903008.623402) vcan0 009#0333000000000000
(1430903008.624111) vcan0 008#031D18EC00000000
(1430903008.729055) vcan0 009#0332000000000000
(1430903008.729632) vcan0 008#033E19F400000000
(1430903008.834853) vcan0 009#0332000000000000
(1430903008.835434) vcan0 008#035A1AD400000000
(1430903008.940815) vcan0 009#0333000000000000
(1430903008.941519) vcan0 008#03611B0800000000
(1430903009.046438) vcan0 009#0333000000000000
(1430903009.047003) vcan0 008#03B61DB000000000
(1430903009.151968) vcan0 009#0333000000000000
(1430903009.152684) vcan0 008#041A20D000000000
(1430903009.257680) vcan0 009#0333000000000000
(1430903009.258234) vcan0 008#0462231000000000
(1430903009.363663) vcan0 009#0333000000000000
(1430903009.364236) vcan0 008#0451228C00000000
(1430903009.469310) vcan0 009#0332000000000000
(1430903009.469882) vcan0 008#0523291C00000000
(1430903009.575180) vcan0 009#0332000000000000
(1430903009.575741) vcan0 008#05812C0C00000000
(1430903009.680675) vcan0 009#0332000000000000
(1430903009.681239) vcan0 008#04E5272C00000000
(1430903009.786306) vcan0 009#0333000000000000
(1430903009.786875) vcan0 008#0484242400000000
(1430903009.891890) vcan0 009#0333000000000000
(1430903009.892825) vcan0 008#04B525A800000000
(1430903009.997693) vcan0 009#0333000000000000
(1430903009.998261) vcan0 008#0527293800000000
(1430903010.103598) vcan0 009#0333000000000000
(1430903010.104322) vcan0 008#05972CB800000000
(1430903010.209204) vcan0 009#0332000000000000
(1430903010.209767) vcan0 008#052E297000000000
(1430903010.315072) vcan0 009#0332000000000000
(1430903010.315649) vcan0 008#05632B1800000000
(1430903010.420655) vcan0 009#0332000000000000
(1430903010.421218) vcan0 008#05742BA000000000
(1430903010.526414) vcan0 009#0331000000000000
(1430903010.526983) vcan0 008#0607101400000000
(1430903010.632003) vcan0 009#0332000000000000
(1430903010.632886) vcan0 008#061F105400000000
(1430903010.737781) vcan0 009#0332000000000000
(1430903010.738340) vcan0 008#05EF0FD400000000
(1430903010.843602) vcan0 009#0332000000000000
(1430903010.844326) vcan0 008#0613103400000000
(1430903010.949558) vcan0 009#0332000000000000
(1430903010.950125) vcan0 008#05BB2DD800000000
(1430903011.055297) vcan0 009#0332000000000000
(1430903011.055877) vcan0 008#067D115000000000
(1430903011.160859) vcan0 009#0332000000000000
(1430903011.161424) vcan0 008#076413B800000000
(1430903011.266636) vcan0 009#0332000000000000
(1430903011.267334) vcan0 008#0732133400000000
(1430903011.372390) vcan0 009#0332000000000000
(1430903011.372965) vcan0 008#07A1145800000000
(1430903011.477922) vcan0 009#0331000000000000
(1430903011.478492) vcan0 008#077413E000000000
(1430903011.583728) vcan0 009#0332000000000000
(1430903011.584448) vcan0 008#0759139C00000000
(1430903011.689314) vcan0 009#0332000000000000
(1430903011.689880) vcan0 008#0726131400000000
(1430903011.795187) vcan0 009#0331000000000000
(1430903011.795750) vcan0 008#07BA149C00000000
(1430903011.900738) vcan0 009#0332000000000000
(1430903011.901305) vcan0 008#078F142C00000000
(1430903012.006324) vcan0 009#0332000000000000
(1430903012.006884) vcan0 008#0788141800000000
(1430903012.111969) vcan0 009#0332000000000000
(1430903012.112919) vcan0 008#076013AC00000000
(1430903012.217806) vcan0 009#0332000000000000
(1430903012.218367) vcan0 008#07DA14F000000000
(1430903012.323569) vcan0 009#0332000000000000
(1430903012.324146) vcan0 008#07C314B400000000
(1430903012.429110) vcan0 009#0332000000000000
(1430903012.429674) vcan0 008#077A13F000000000
(1430903012.534896) vcan0 009#0331000000000000
(1430903012.535475) vcan0 008#0783140C00000000
(1430903012.640522) vcan0 009#0331000000000000
(1430903012.641096) vcan0 008#0782140800000000
(1430903012.746350) vcan0 009#0331000000000000
(1430903012.746922) vcan0 008#07A9147000000000
(1430903012.851863) vcan0 009#0330000000000000
(1430903012.852569) vcan0 008#07FF155400000000
(1430903012.957823) vcan0 009#0330000000000000
(1430903012.958379) vcan0 008#07EA151C00000000
(1430903013.063682) vcan0 009#0330000000000000
(1430903013.064391) vcan0 008#082815C400000000
(1430903013.169800) vcan0 009#0330000000000000
(1430903013.170383) vcan0 008#083315E000000000
(1430903013.275573) vcan0 009#0331000000000000
(1430903013.276155) vcan0 008#07EF152800000000
(1430903013.381189) vcan0 009#0331000000000000
(1430903013.381761) vcan0 008#07E7151400000000
(1430903013.486952) vcan0 009#0331000000000000
(1430903013.487517) vcan0 008#08AA171C00000000
(1430903013.593313) vcan0 009#0331000000000000
(1430903013.593996) vcan0 008#08B1173000000000
(1430903013.698877) vcan0 009#0331000000000000
(1430903013.699440) vcan0 008#091B184C00000000
(1430903013.804695) vcan0 009#0331000000000000
(1430903013.805267) vcan0 008#090B182000000000
(1430903013.910206) vcan0 009#0331000000000000
(1430903013.910769) vcan0 008#08C9177000000000
(1430903014.015951) vcan0 009#0331000000000000
(1430903014.016526) vcan0 008#087C16A400000000
(1430903014.121876) vcan0 009#0331000000000000
(1430903014.122860) vcan0 008#085F165400000000
(1430903014.227908) vcan0 009#0331000000000000
(1430903014.228483) vcan0 008#07E7151400000000
(1430903014.333718) vcan0 009#0331000000000000
(1430903014.334424) vcan0 008#0811158400000000
(1430903014.439385) vcan0 009#0331000000000000
(1430903014.439959) vcan0 008#086C167800000000
(1430903014.545119) vcan0 009#0331000000000000
(1430903014.545710) vcan0 008#08B5173C00000000
(1430903014.650656) vcan0 009#0331000000000000
(1430903014.651220) vcan0 008#088816C000000000
(1430903014.756437) vcan0 009#0331000000000000
(1430903014.757012) vcan0 008#08D0178400000000
(1430903014.862426) vcan0 009#0331000000000000
(1430903014.863098) vcan0 008#08C6176800000000
(1430903014.967947) vcan0 009#0331000000000000
(1430903014.968503) vcan0 008#08FA17F400000000
(1430903015.073922) vcan0 009#0330000000000000
(1430903015.074671) vcan0 008#0925186400000000
(1430903015.179649) vcan0 009#0330000000000000
(1430903015.180722) vcan0 008#093B18A000000000
(1430903015.285871) vcan0 009#0331000000000000
(1430903015.286437) vcan0 008#090B182000000000
(1430903015.391497) vcan0 009#0331000000000000
(1430903015.392075) vcan0 008#0997199400000000
(1430903015.497338) vcan0 009#0331000000000000
(1430903015.497917) vcan0 008#09C61A1400000000
(1430903015.603083) vcan0 009#0331000000000000
(1430903015.603669) vcan0 008#09A219B400000000
(1430903015.708666) vcan0 009#0330000000000000
(1430903015.709223) vcan0 008#09C01A0400000000
(1430903015.814301) vcan0 009#0330000000000000
(1430903015.814863) vcan0 008#0A181AEC00000000
(1430903015.919904) vcan0 009#0330000000000000
(1430903015.920481) vcan0 008#0A411B5C00000000
(1430903016.025585) vcan0 009#0330000000000000
(1430903016.026153) vcan0 008#0A2B1B2000000000
(1430903016.131488) vcan0 009#0330000000000000
(1430903016.132352) vcan0 008#0B0C1D7800000000
(1430903016.237689) vcan0 009#0330000000000000
(1430903016.238384) vcan0 008#0B061D6800000000
(1430903016.343683) vcan0 009#0330000000000000
(1430903016.344410) vcan0 008#0B561E4000000000
(1430903016.449508) vcan0 009#032F000000000000
(1430903016.450091) vcan0 008#0B751E9000000000
(1430903016.555505) vcan0 009#0330000000000000
(1430903016.556076) vcan0 008#0B9A1EF400000000
(1430903016.661128) vcan0 009#0330000000000000
(1430903016.661695) vcan0 008#0C0F202C00000000
(1430903016.766765) vcan0 009#0330000000000000
(1430903016.767328) vcan0 008#0C15203C00000000
(1430903016.872818) vcan0 009#0330000000000000
(1430903016.873518) vcan0 008#0C18204400000000
(1430903016.978444) vcan0 009#0330000000000000
(1430903016.979019) vcan0 008#0B891EC400000000
(1430903017.084291) vcan0 009#0330000000000000
(1430903017.085032) vcan0 008#0BF41FE400000000
(1430903017.190047) vcan0 009#0330000000000000
(1430903017.190624) vcan0 008#0BFA1FF400000000
(1430903017.295940) vcan0 009#0330000000000000
(1430903017.296515) vcan0 008#0CC4221000000000
(1430903017.401687) vcan0 009#0330000000000000
(1430903017.402545) vcan0 008#0CC4221000000000
(1430903017.507532) vcan0 009#0330000000000000
(1430903017.508116) vcan0 008#0C95219000000000
(1430903017.613344) vcan0 009#0330000000000000
(1430903017.614056) vcan0 008#0CB221DC00000000
(1430903017.718979) vcan0 009#032F000000000000
(1430903017.720187) vcan0 008#0CE1225C00000000
(1430903017.825348) vcan0 009#032F000000000000
(1430903017.825934) vcan0 008#0CA821C400000000
(1430903017.930889) vcan0 009#032F000000000000
(1430903017.931461) vcan0 008#0CA121B000000000
(1430903018.036444) vcan0 009#032F000000000000
(1430903018.037014) vcan0 008#0DB413F400000000
(1430903018.142316) vcan0 009#032F000000000000
(1430903018.142907) vcan0 008#0E6C14FC00000000
(1430903018.247888) vcan0 009#032F000000000000
(1430903018.248451) vcan0 008#0E77151000000000
(1430903018.353890) vcan0 009#032F000000000000
(1430903018.354614) vcan0 008#0E70150400000000
(1430903018.459636) vcan0 009#032F000000000000
(1430903018.460223) vcan0 008#0E73150800000000
(1430903018.565605) vcan0 009#032F000000000000
(1430903018.566184) vcan0 008#0F53165000000000
(1430903018.671186) vcan0 009#032E000000000000
(1430903018.671759) vcan0 008#0F83169400000000
(1430903018.777453) vcan0 009#032F000000000000
(1430903018.778167) vcan0 008#0F84169400000000
(1430903018.883184) vcan0 009#032F000000000000
(1430903018.883752) vcan0 008#0F65166800000000
(1430903018.988725) vcan0 009#032F000000000000
(1430903018.989293) vcan0 008#0F6A167000000000
(1430903019.094436) vcan0 009#032F000000000000
(1430903019.094996) vcan0 008#0EEA15B800000000
(1430903019.200272) vcan0 009#032F000000000000
(1430903019.200973) vcan0 008#0F5A165800000000
(1430903019.306047) vcan0 009#032F000000000000
(1430903019.306631) vcan0 008#0FC016EC00000000
(1430903019.411852) vcan0 009#032F000000000000
(1430903019.412837) vcan0 008#0F4B164400000000
(1430903019.517808) vcan0 009#032F000000000000
(1430903019.518383) vcan0 008#0FE7172800000000
(1430903019.623536) vcan0 009#032F000000000000
(1430903019.624109) vcan0 008#0FE0171C00000000
(1430903019.729089) vcan0 009#032F000000000000
(1430903019.729645) vcan0 008#0FA316C400000000
(1430903019.834930) vcan0 009#032F000000000000
(1430903019.835499) vcan0 008#0F9316AC00000000
(1430903019.940455) vcan0 009#032F000000000000
(1430903019.941022) vcan0 008#0F48164000000000
(1430903020.046293) vcan0 009#0330000000000000
(1430903020.046872) vcan0 008#0FE3172000000000
(1430903020.152057) vcan0 009#0330000000000000
(1430903020.153069) vcan0 008#0F62166400000000
(1430903020.258011) vcan0 009#0330000000000000
(1430903020.258583) vcan0 008#0EF815C800000000
(1430903020.363918) vcan0 009#0330000000000000
(1430903020.364633) vcan0 008#0F38162800000000
(1430903020.469852) vcan0 009#0331000000000000
(1430903020.470554) vcan0 008#101D177400000000
(1430903020.575763) vcan0 009#0331000000000000
(1430903020.576342) vcan0 008#10EA18A000000000
(1430903020.681360) vcan0 009#0331000000000000
(1430903020.681934) vcan0 008#10E0189000000000
(1430903020.787304) vcan0 009#0331000000000000
(1430903020.787868) vcan0 008#10D6188400000000
(1430903020.893022) vcan0 009#0331000000000000
(1430903020.893723) vcan0 008#110F18D400000000
(1430903020.998591) vcan0 009#0331000000000000
(1430903020.999154) vcan0 008#114A192C00000000
(1430903021.104387) vcan0 009#0332000000000000
(1430903021.104969) vcan0 008#11BA19D000000000
(1430903021.209948) vcan0 009#0332000000000000
(1430903021.210511) vcan0 008#12391A8800000000
(1430903021.315787) vcan0 009#0332000000000000
(1430903021.316361) vcan0 008#11C319DC00000000
(1430903021.421353) vcan0 009#0331000000000000
(1430903021.421916) vcan0 008#11DC1A0000000000
(1430903021.527061) vcan0 009#0332000000000000
(1430903021.527638) vcan0 008#11A119A800000000
(1430903021.633128) vcan0 009#0331000000000000
(1430903021.633843) vcan0 008#11EF1A1C00000000
(1430903021.740739) vcan0 009#0331000000000000
(1430903021.744654) vcan0 008#11C219D800000000
(1430903021.850041) vcan0 009#0331000000000000
(1430903021.850630) vcan0 008#124F1AA800000000
(1430903021.956117) vcan0 009#0331000000000000
(1430903021.956701) vcan0 008#127A1AE400000000
(1430903022.061921) vcan0 009#0332000000000000
(1430903022.063289) vcan0 008#12551AB000000000
(1430903022.168386) vcan0 009#0332000000000000
(1430903022.168963) vcan0 008#12401A9000000000
(1430903022.274112) vcan0 009#0332000000000000
(1430903022.274684) vcan0 008#11D319F400000000
(1430903022.379705) vcan0 009#0332000000000000
(1430903022.380923) vcan0 008#11AB19B800000000
(1430903022.486139) vcan0 009#0333000000000000
(1430903022.486713) vcan0 008#12391A8800000000
(1430903022.592045) vcan0 009#0333000000000000
(1430903022.593056) vcan0 008#12951B0C00000000
(1430903022.698061) vcan0 009#0332000000000000
(1430903022.698631) vcan0 008#12181A5800000000
(1430903022.803761) vcan0 009#0332000000000000
(1430903022.804339) vcan0 008#12991B1400000000
(1430903022.909347) vcan0 009#0332000000000000
(1430903022.909922) vcan0 008#12FE1BA800000000
(1430903023.015232) vcan0 009#0333000000000000
(1430903023.015801) vcan0 008#12E91B8800000000
(1430903023.121160) vcan0 009#0333000000000000
(1430903023.121772) vcan0 008#12B51B3C00000000
(1430903023.226974) vcan0 009#0332000000000000
(1430903023.227555) vcan0 008#13271BE400000000
(1430903023.332808) vcan0 009#0332000000000000
(1430903023.333511) vcan0 008#13401C0400000000
(1430903023.438445) vcan0 009#0332000000000000
(1430903023.439014) vcan0 008#13551C2400000000
(1430903023.544090) vcan0 009#0332000000000000
(1430903023.544651) vcan0 008#13AD1CA400000000
(1430903023.649695) vcan0 009#0332000000000000
(1430903023.650269) vcan0 008#13C51CC800000000
(1430903023.755441) vcan0 009#0332000000000000
(1430903023.756017) vcan0 008#14231D5000000000
(1430903023.860989) vcan0 009#0331000000000000
(1430903023.861549) vcan0 008#147B1DD000000000
(1430903023.966554) vcan0 009#0331000000000000
(1430903023.967112) vcan0 008#14A81E1000000000
(1430903024.072377) vcan0 009#0331000000000000
(1430903024.073037) vcan0 008#14C41E3C00000000
(1430903024.177934) vcan0 009#0331000000000000
(1430903024.178506) vcan0 008#14C51E3C00000000
(1430903024.284060) vcan0 009#0331000000000000
(1430903024.284775) vcan0 008#149D1E0400000000
(1430903024.389684) vcan0 009#0331000000000000
(1430903024.390249) vcan0 008#15221EC400000000
(1430903024.495357) vcan0 009#0331000000000000
(1430903024.495921) vcan0 008#14E61E6C00000000
(1430903024.601076) vcan0 009#0331000000000000
(1430903024.601649) vcan0 008#154C1F0000000000
(1430903024.706730) vcan0 009#0331000000000000
(1430903024.707307) vcan0 008#15391EE400000000
(1430903024.812529) vcan0 009#0331000000000000
(1430903024.813210) vcan0 008#15871F5800000000
(1430903024.918074) vcan0 009#0331000000000000
(1430903024.918648) vcan0 008#15DA1FD000000000
(1430903025.023763) vcan0 009#0331000000000000
(1430903025.024331) vcan0 008#15B21F9800000000
(1430903025.129359) vcan0 009#0331000000000000
(1430903025.129931) vcan0 008#161C203000000000
(1430903025.235197) vcan0 009#0331000000000000
(1430903025.235768) vcan0 008#161E203400000000
(1430903025.340835) vcan0 009#0332000000000000
(1430903025.341417) vcan0 008#165B208C00000000
(1430903025.446508) vcan0 009#0332000000000000
(1430903025.447072) vcan0 008#169920E400000000
(1430903025.552014) vcan0 009#0332000000000000
(1430903025.553000) vcan0 008#168320C400000000
(1430903025.658073) vcan0 009#0332000000000000
(1430903025.658629) vcan0 008#169620E000000000
(1430903025.764046) vcan0 009#0333000000000000
(1430903025.764785) vcan0 008#168720CC00000000
(1430903025.869673) vcan0 009#0333000000000000
(1430903025.870233) vcan0 008#169120DC00000000
(1430903025.975424) vcan0 009#0333000000000000
(1430903025.975992) vcan0 008#16CF213400000000
(1430903026.081100) vcan0 009#0332000000000000
(1430903026.081686) vcan0 008#16E2215000000000
(1430903026.187004) vcan0 009#0332000000000000
(1430903026.187581) vcan0 008#175421F800000000
(1430903026.292912) vcan0 009#0332000000000000
(1430903026.293638) vcan0 008#16D2213800000000
(1430903026.398513) vcan0 009#0332000000000000
(1430903026.399073) vcan0 008#16AF210400000000
(1430903026.504525) vcan0 009#0332000000000000
(1430903026.505253) vcan0 008#1643206800000000
(1430903026.610589) vcan0 009#0332000000000000
(1430903026.611218) vcan0 008#169020D800000000
(1430903026.716877) vcan0 009#0332000000000000
(1430903026.717494) vcan0 008#16B5211000000000
(1430903026.822786) vcan0 009#0332000000000000
(1430903026.823510) vcan0 008#16A120F000000000
(1430903026.928381) vcan0 009#0332000000000000
(1430903026.928938) vcan0 008#171C21A400000000
(1430903027.034681) vcan0 009#0332000000000000
(1430903027.035275) vcan0 008#1769221400000000
(1430903027.140372) vcan0 009#0331000000000000
(1430903027.140961) vcan0 008#17B3228000000000
(1430903027.246141) vcan0 009#0332000000000000
(1430903027.246698) vcan0 008#17EF22D800000000
(1430903027.351691) vcan0 009#0332000000000000
(1430903027.352645) vcan0 008#18F3245400000000
(1430903027.457581) vcan0 009#0332000000000000
(1430903027.458138) vcan0 008#17E722CC00000000
(1430903027.563388) vcan0 009#0332000000000000
(1430903027.564099) vcan0 008#1812230C00000000
(1430903027.669057) vcan0 009#0332000000000000
(1430903027.669621) vcan0 008#17DC22BC00000000
(1430903027.774926) vcan0 009#0332000000000000
(1430903027.775491) vcan0 008#171B21A400000000
(1430903027.880552) vcan0 009#0332000000000000
(1430903027.881125) vcan0 008#171821A000000000
(1430903027.986207) vcan0 009#0332000000000000
(1430903027.986767) vcan0 008#172F21C000000000
(1430903028.091826) vcan0 009#0332000000000000
(1430903028.092790) vcan0 008#1872239800000000
(1430903028.197723) vcan0 009#0332000000000000
(1430903028.198286) vcan0 008#189223C400000000
(1430903028.303450) vcan0 009#0332000000000000
(1430903028.304161) vcan0 008#18AC23EC00000000
(1430903028.409122) vcan0 009#0332000000000000
(1430903028.409695) vcan0 008#17E222C400000000
(1430903028.515377) vcan0 009#0332000000000000
(1430903028.515956) vcan0 008#189F23D800000000
(1430903028.621096) vcan0 009#0332000000000000
(1430903028.621668) vcan0 008#1849235C00000000
(1430903028.726819) vcan0 009#0332000000000000
(1430903028.727390) vcan0 008#18A623E000000000
(1430903028.832538) vcan0 009#0332000000000000
(1430903028.833102) vcan0 008#1969250000000000
(1430903028.938081) vcan0 009#0332000000000000
(1430903028.938655) vcan0 008#19BD257800000000
(1430903029.043702) vcan0 009#0332000000000000
(1430903029.044268) vcan0 008#1A0225DC00000000
(1430903029.149240) vcan0 009#0332000000000000
(1430903029.149812) vcan0 008#19CD259000000000
(1430903029.255072) vcan0 009#0332000000000000
(1430903029.255638) vcan0 008#19C5258400000000
(1430903029.360701) vcan0 009#0332000000000000
(1430903029.361272) vcan0 008#19AB256000000000
(1430903029.466318) vcan0 009#0332000000000000
(1430903029.466886) vcan0 008#1A0225DC00000000
(1430903029.571793) vcan0 009#0332000000000000
(1430903029.572718) vcan0 008#19F925D000000000
(1430903029.677660) vcan0 009#0332000000000000
(1430903029.678223) vcan0 008#1A1E260400000000
(1430903029.783355) vcan0 009#0332000000000000
(1430903029.783919) vcan0 008#19E225B000000000
(1430903029.888844) vcan0 009#0331000000000000
(1430903029.889404) vcan0 008#19BB257400000000
(1430903029.994651) vcan0 009#0331000000000000
(1430903029.995210) vcan0 008#19A5255400000000
(1430903030.100484) vcan0 009#0331000000000000
(1430903030.101083) vcan0 008#1A28261400000000
(1430903030.206191) vcan0 009#0331000000000000
(1430903030.206760) vcan0 008#19A9255C00000000
(1430903030.311878) vcan0 009#0331000000000000
(1430903030.312856) vcan0 008#196F250800000000
(1430903030.418110) vcan0 009#0331000000000000
(1430903030.418825) vcan0 008#19EF25C000000000
(1430903030.523837) vcan0 009#0330000000000000
(1430903030.524391) vcan0 008#1A0225DC00000000
(1430903030.629418) vcan0 009#0330000000000000
(1430903030.629985) vcan0 008#1A51265000000000
(1430903030.735197) vcan0 009#0330000000000000
(1430903030.735766) vcan0 008#1A0C25EC00000000
(1430903030.840781) vcan0 009#0330000000000000
(1430903030.841342) vcan0 008#1A9B26BC00000000
(1430903030.946402) vcan0 009#0330000000000000
(1430903030.946963) vcan0 008#1B691B6800000000
(1430903031.052435) vcan0 009#0330000000000000
(1430903031.053162) vcan0 008#1B631B6000000000
(1430903031.158106) vcan0 009#0331000000000000
(1430903031.158675) vcan0 008#1B671B6400000000
(1430903031.263743) vcan0 009#0331000000000000
(1430903031.264306) vcan0 008#1BAC1BAC00000000
(1430903031.369410) vcan0 009#0332000000000000
(1430903031.369974) vcan0 008#1BDB1BD800000000
(1430903031.475106) vcan0 009#0332000000000000
(1430903031.475681) vcan0 008#1B741B7400000000
(1430903031.580642) vcan0 009#0332000000000000
(1430903031.583630) vcan0 008#1B07275800000000
(1430903031.688968) vcan0 009#0332000000000000
(1430903031.689578) vcan0 008#1ADD271C00000000
(1430903031.794870) vcan0 009#0332000000000000
(1430903031.795463) vcan0 008#1B14276C00000000
(1430903031.900504) vcan0 009#0333000000000000
(1430903031.901075) vcan0 008#1B5627CC00000000
(1430903032.006370) vcan0 009#0332000000000000
(1430903032.006941) vcan0 008#1B1A277400000000
(1430903032.112270) vcan0 009#0332000000000000
(1430903032.112997) vcan0 008#1B711B7000000000
(1430903032.217910) vcan0 009#0333000000000000
(1430903032.218483) vcan0 008#1BB71BB400000000
(1430903032.323749) vcan0 009#0333000000000000
(1430903032.324478) vcan0 008#1B9A1B9800000000
(1430903032.429669) vcan0 009#0333000000000000
(1430903032.430230) vcan0 008#1BF11BF000000000
(1430903032.535765) vcan0 009#0333000000000000
(1430903032.536341) vcan0 008#1BF91BF800000000
(1430903032.641511) vcan0 009#0332000000000000
(1430903032.642210) vcan0 008#1B9B1B9800000000
(1430903032.747204) vcan0 009#0332000000000000
(1430903032.747763) vcan0 008#1C161C1400000000
(1430903032.852806) vcan0 009#0332000000000000
(1430903032.853376) vcan0 008#1C2D1C2C00000000
(1430903032.958438) vcan0 009#0332000000000000
(1430903032.959014) vcan0 008#1C291C2800000000
(1430903033.064276) vcan0 009#0333000000000000
(1430903033.065013) vcan0 008#1CA61CA400000000
(1430903033.169959) vcan0 009#0334000000000000
(1430903033.170520) vcan0 008#1C841C8400000000
(1430903033.275631) vcan0 009#0334000000000000
(1430903033.276195) vcan0 008#1CA01CA000000000
(1430903033.381262) vcan0 009#0334000000000000
(1430903033.381836) vcan0 008#1CF41CF400000000
(1430903033.487115) vcan0 009#0333000000000000
(1430903033.487691) vcan0 008#1D581D5800000000
(1430903033.593450) vcan0 009#0333000000000000
(1430903033.594114) vcan0 008#1DAC1DAC00000000
(1430903033.699152) vcan0 009#0333000000000000
(1430903033.699732) vcan0 008#1DCC1DCC00000000
(1430903033.805076) vcan0 009#0333000000000000
(1430903033.805642) vcan0 008#1D3F1D3C00000000
(1430903033.910606) vcan0 009#0332000000000000
(1430903033.911169) vcan0 008#1D0E1D0C00000000
(1430903034.016189) vcan0 009#0333000000000000
(1430903034.016743) vcan0 008#1C821C8000000000
(1430903034.121922) vcan0 009#0333000000000000
(1430903034.122904) vcan0 008#1C711C7000000000
(1430903034.227926) vcan0 009#0333000000000000
(1430903034.228512) vcan0 008#1C8B1C8800000000
(1430903034.334054) vcan0 009#0333000000000000
(1430903034.334766) vcan0 008#1D231D2000000000
(1430903034.439671) vcan0 009#0333000000000000
(1430903034.440243) vcan0 008#1CE51CE400000000
(1430903034.545508) vcan0 009#0332000000000000
(1430903034.546075) vcan0 008#1CCD1CCC00000000
(1430903034.651111) vcan0 009#0332000000000000
(1430903034.651678) vcan0 008#1D221D2000000000
(1430903034.756779) vcan0 009#0332000000000000
(1430903034.757353) vcan0 008#1D5D1D5C00000000
(1430903034.862656) vcan0 009#0333000000000000
(1430903034.863365) vcan0 008#1DBF1DBC00000000
(1430903034.968615) vcan0 009#0332000000000000
(1430903034.969214) vcan0 008#1E641E6400000000
(1430903035.074668) vcan0 009#0332000000000000
(1430903035.075250) vcan0 008#1EB11EB000000000
(1430903035.180421) vcan0 009#0332000000000000
(1430903035.181001) vcan0 008#1F031F0000000000
(1430903035.286246) vcan0 009#0332000000000000
(1430903035.286817) vcan0 008#1F1A1F1800000000
(1430903035.391878) vcan0 009#0332000000000000
(1430903035.392867) vcan0 008#1FD91FD800000000
(1430903035.497844) vcan0 009#0332000000000000
(1430903035.498415) vcan0 008#200B200800000000
(1430903035.603639) vcan0 009#0333000000000000
(1430903035.604216) vcan0 008#204F204C00000000
(1430903035.709331) vcan0 009#0332000000000000
(1430903035.709902) vcan0 008#20C320C000000000
(1430903035.815049) vcan0 009#0332000000000000
(1430903035.815615) vcan0 008#20FF20FC00000000
(1430903035.920705) vcan0 009#0332000000000000
(1430903035.921283) vcan0 008#2136213400000000
(1430903036.026393) vcan0 009#0332000000000000
(1430903036.026965) vcan0 008#21A321A000000000
(1430903036.132036) vcan0 009#0332000000000000
(1430903036.132925) vcan0 008#21CA21C800000000
(1430903036.238446) vcan0 009#0332000000000000
(1430903036.239030) vcan0 008#21E721E400000000
(1430903036.344497) vcan0 009#0332000000000000
(1430903036.345076) vcan0 008#21CA21C800000000
(1430903036.450162) vcan0 009#0331000000000000
(1430903036.450727) vcan0 008#2129212800000000
(1430903036.556028) vcan0 009#0332000000000000
(1430903036.556586) vcan0 008#2185218400000000
(1430903036.661687) vcan0 009#0332000000000000
(1430903036.662402) vcan0 008#21E521E400000000
(1430903036.767402) vcan0 009#0331000000000000
(1430903036.767956) vcan0 008#21BA21B800000000
(1430903036.873124) vcan0 009#0332000000000000
(1430903036.873687) vcan0 008#2230223000000000
(1430903036.978644) vcan0 009#0332000000000000
(1430903036.979211) vcan0 008#22A022A000000000
(1430903037.084465) vcan0 009#0331000000000000
(1430903037.085041) vcan0 008#2283228000000000
(1430903037.190079) vcan0 009#0331000000000000
(1430903037.190659) vcan0 008#2252225000000000
(1430903037.295887) vcan0 009#0331000000000000
(1430903037.296451) vcan0 008#2241224000000000
(1430903037.401444) vcan0 009#0331000000000000
(1430903037.402008) vcan0 008#22A122A000000000
(1430903037.507172) vcan0 009#0331000000000000
(1430903037.507747) vcan0 008#228B228800000000
(1430903037.613035) vcan0 009#0332000000000000
(1430903037.613778) vcan0 008#2328232800000000
(1430903037.718793) vcan0 009#0332000000000000
(1430903037.719369) vcan0 008#23FF23FC00000000
(1430903037.824482) vcan0 009#0332000000000000
(1430903037.825046) vcan0 008#245D245C00000000
(1430903037.930051) vcan0 009#0332000000000000
(1430903037.930628) vcan0 008#2455245400000000
(1430903038.035912) vcan0 009#0332000000000000
